! Created with skrf (http://scikit-rf.org).
# Hz S MA R 50.0 
!freq magS11 angS11 magS12 angS12 magS13 angS13
! magS14 angS14
! magS21 angS21 magS22 angS22 magS23 angS23
! magS24 angS24
! magS31 angS31 magS32 angS32 magS33 angS33
! magS34 angS34
! magS41 angS41 magS42 angS42 magS43 angS43
! magS44 angS44
!
10000000.0 0.06369038274665437 19.48510746025007 0.015740166739674773 62.94065784885251 0.783919450247879 -20.01678064045662 0.0021521675266430074 -164.84696375145506
 0.015740166739674783 62.94065784885252 0.06369038274665437 19.48510746025007 0.0021521675266430143 -164.84696375145478 0.783919450247879 -20.016780640456624
 0.783919450247879 -20.01678064045661 0.002152167526642931 -164.84696375145927 0.4587849584818328 -8.40364844831279 0.041188081399027916 152.81172832469872
 0.002152167526642798 -164.84696375145816 0.783919450247879 -20.016780640456616 0.04118808139902794 152.81172832469872 0.4587849584818328 -8.403648448312786
20000000.0 0.09466531285926416 9.507766328085841 0.028634818230877785 35.76292463785398 0.7825131600289339 -39.570582165465815 0.0021840357140445197 -161.88791217513187
 0.028634818230877795 35.76292463785398 0.09466531285926415 9.507766328085848 0.0021840357140444065 -161.88791217512963 0.782513160028934 -39.570582165465815
 0.782513160028934 -39.57058216546584 0.0021840357140441684 -161.8879121751317 0.44562638948993316 -17.482908037334617 0.04283150005163186 129.2381067262886
 0.002184035714044281 -161.88791217513392 0.782513160028934 -39.570582165465844 0.04283150005163188 129.23810672628863 0.44562638948993316 -17.48290803733461
30000000.0 0.12102788704597196 -7.810132785292813 0.03906569205197694 8.293929138250462 0.7831016573701286 -59.10510387639344 0.003280992517009392 -142.15138236706403
 0.03906569205197694 8.293929138250473 0.12102788704597199 -7.810132785292798 0.003280992517009334 -142.15138236706179 0.7831016573701282 -59.10510387639344
 0.7831016573701286 -59.10510387639344 0.003280992517009284 -142.1513823670595 0.4182067180121345 -27.219742217512866 0.04508457423658028 108.92841110547609
 0.0032809925170092917 -142.15138236705675 0.7831016573701284 -59.10510387639344 0.04508457423658026 108.92841110547606 0.41820671801213444 -27.219742217512863
40000000.0 0.13718611565406125 -29.023280975654316 0.0454236166973187 -18.443468391772956 0.7852269410937773 -78.78874041041487 0.005779724483824393 -144.9429881638923
 0.04542361669731868 -18.443468391772967 0.13718611565406127 -29.023280975654334 0.005779724483824501 -144.9429881638913 0.7852269410937774 -78.78874041041487
 0.7852269410937769 -78.78874041041487 0.0057797244838242185 -144.94298816389136 0.37439380548066165 -36.975423024013494 0.045976082100080265 91.24270194997321
 0.005779724483824286 -144.94298816389121 0.7852269410937769 -78.78874041041487 0.04597608210008025 91.24270194997324 0.3743938054806617 -36.97542302401349
50000000.0 0.14099912066599343 -50.66741055172889 0.04721772132086993 -44.737255922630666 0.787912497399284 -98.65378292474666 0.009602828854741882 -161.58354397734763
 0.04721772132086993 -44.73725592263067 0.14099912066599346 -50.66741055172889 0.009602828854741887 -161.5835439773467 0.7879124973992836 -98.65378292474666
 0.7879124973992846 -98.65378292474665 0.009602828854741936 -161.58354397734382 0.3171437470207672 -46.41280983994208 0.04438926396251791 76.87374229139674
 0.009602828854741815 -161.5835439773432 0.7879124973992842 -98.65378292474666 0.04438926396251789 76.87374229139668 0.31714374702076714 -46.41280983994207
60000000.0 0.1293968247356635 -72.36327414679003 0.04309438181039462 -70.2900642978526 0.7897688026594556 -118.69265703858541 0.014183676514400667 176.95760393666234
 0.04309438181039466 -70.29006429785258 0.1293968247356635 -72.36327414679003 0.014183676514400546 176.95760393666203 0.7897688026594557 -118.69265703858541
 0.7897688026594557 -118.69265703858544 0.014183676514400747 176.95760393666183 0.24850414505504345 -54.822754403681785 0.04034975344474584 65.73729990033965
 0.014183676514400593 176.95760393666174 0.7897688026594558 -118.69265703858544 0.04034975344474587 65.73729990033962 0.24850414505504345 -54.8227544036818
70000000.0 0.10345012879126919 -91.75469264021065 0.03349302882734635 -92.47814221012959 0.788493769367041 -138.86077561121266 0.019437873590523652 152.80160575260143
 0.033493028827346345 -92.47814221012956 0.10345012879126919 -91.75469264021065 0.019437873590523614 152.80160575260152 0.788493769367041 -138.86077561121266
 0.788493769367041 -138.86077561121266 0.019437873590523937 152.80160575260294 0.1736608200412393 -60.438233470346205 0.033370639642668544 59.86310058910913
 0.019437873590523957 152.80160575260288 0.788493769367041 -138.86077561121266 0.033370639642668544 59.863100589109145 0.1736608200412393 -60.43823347034619
80000000.0 0.06701017256552055 -101.82147554430938 0.01953992030105839 -102.2234572205184 0.784116435692464 -159.0202520214598 0.024713621521465858 127.79012742908343
 0.019539920301058392 -102.22345722051845 0.06701017256552053 -101.82147554430941 0.024713621521465907 127.79012742908375 0.7841164356924639 -159.0202520214598
 0.784116435692464 -159.0202520214598 0.02471362152146593 127.79012742908411 0.09998062920785487 -56.94838376497227 0.02533581562235615 65.0472228033272
 0.02471362152146595 127.79012742908408 0.784116435692464 -159.0202520214598 0.025335815622356126 65.0472228033272 0.09998062920785487 -56.94838376497221
90000000.0 0.042857303825754686 -72.41579859455649 0.014443283459435722 -55.61488024463197 0.7766953329929411 -179.0761239214279 0.030305022533386943 102.08479456678423
 0.014443283459435689 -55.61488024463191 0.04285730382575468 -72.41579859455646 0.03030502253338696 102.0847945667845 0.7766953329929411 -179.0761239214279
 0.7766953329929411 -179.0761239214279 0.030305022533386898 102.08479456678319 0.054300910635433165 -15.449999529713786 0.0218106081215504 90.43171835229255
 0.03030502253338694 102.08479456678344 0.7766953329929411 -179.0761239214279 0.021810608121550407 90.43171835229269 0.054300910635433144 -15.449999529713782
100000000.0 0.07972045545608288 -45.26603484182484 0.03327083153540017 -43.12589918455853 0.7677119728798426 161.04482665553473 0.03555755877768578 76.34098177948675
 0.033270831535400155 -43.12589918455853 0.07972045545608294 -45.266034841824904 0.03555755877768575 76.34098177948697 0.7677119728798423 161.04482665553473
 0.7677119728798422 161.04482665553473 0.035557558777685704 76.34098177948674 0.0877291455631801 30.995840814764353 0.030432307651741583 116.39431227149774
 0.035557558777685704 76.34098177948674 0.7677119728798423 161.04482665553473 0.03043230765174159 116.39431227149775 0.08772914556318008 30.99584081476436
110000000.0 0.14240430043866878 -55.936437251356836 0.057880667037382594 -61.106274063261516 0.7581827365214099 141.35923820873452 0.040964104783024737 50.735492696824025
 0.05788066703738265 -61.10627406326149 0.1424043004386688 -55.93643725135685 0.04096410478302483 50.73549269682407 0.7581827365214099 141.35923820873452
 0.7581827365214097 141.3592382087345 0.04096410478302461 50.735492696823975 0.1447249829656901 37.28638294810547 0.04837619126169245 122.81728665783157
 0.04096410478302466 50.73549269682398 0.7581827365214097 141.3592382087345 0.04837619126169245 122.81728665783153 0.14472498296569017 37.28638294810547
120000000.0 0.20983428446560629 -75.98632974932934 0.08272260973904892 -85.12961362564789 0.7489112271938165 121.87401318496387 0.04613455631800578 25.192838217694998
 0.0827226097390489 -85.12961362564789 0.2098342844656063 -75.98632974932933 0.04613455631800577 25.19283821769502 0.7489112271938166 121.87401318496387
 0.748911227193817 121.87401318496387 0.046134556318005636 25.19283821769529 0.1965896274959506 33.93482673683048 0.07054495036680644 119.5926191093751
 0.04613455631800571 25.19283821769516 0.7489112271938168 121.87401318496387 0.07054495036680641 119.59261910937512 0.19658962749595063 33.93482673683049
130000000.0 0.2757440717436226 -98.71414572941332 0.10530600942549863 -110.59866841152086 0.7406245241865397 102.51859947836046 0.051326008928751735 -0.5600254482481293
 0.10530600942549864 -110.59866841152085 0.2757440717436226 -98.7141457294133 0.051326008928751755 -0.5600254482480782 0.7406245241865399 102.51859947836046
 0.7406245241865397 102.51859947836046 0.05132600892875165 -0.5600254482482426 0.23926218205330205 28.13808136022676 0.09528444957400252 112.24864757666904
 0.05132600892875158 -0.5600254482480034 0.7406245241865396 102.51859947836044 0.09528444957400255 112.24864757666904 0.23926218205330205 28.13808136022677
140000000.0 0.33702320092926424 -122.52298308059213 0.12436641579700784 -136.5733600227715 0.733290615148251 83.30373048330291 0.05595182284182984 -26.68563596257145
 0.12436641579700783 -136.57336002277148 0.33702320092926424 -122.52298308059213 0.055951822841829736 -26.685635962571464 0.7332906151482508 83.30373048330291
 0.733290615148251 83.30373048330291 0.05595182284182978 -26.685635962571265 0.2716413915683038 21.417378647319453 0.12031400311111483 103.01398058485712
 0.055951822841829535 -26.68563596257131 0.7332906151482508 83.3037304833029 0.12031400311111486 103.01398058485715 0.2716413915683038 21.41737864731944
150000000.0 0.3901611084021974 -146.64134108573174 0.1378180107844872 -162.28350646169187 0.7277488426316873 64.17633759749408 0.06002751530078945 -53.12295235583109
 0.1378180107844873 -162.2835064616919 0.3901611084021973 -146.64134108573174 0.060027515300789494 -53.122952355831096 0.727748842631687 64.17633759749408
 0.7277488426316873 64.17633759749408 0.06002751530078942 -53.12295235583133 0.2936873607085471 14.65580907867527 0.14517914281533703 92.85473988096349
 0.06002751530078949 -53.12295235583122 0.7277488426316872 64.17633759749408 0.14517914281533703 92.85473988096349 0.2936873607085471 14.655809078675267
160000000.0 0.4339950505723413 -170.86291230063225 0.14625590327402216 172.5509557964399 0.7237423019272375 45.104784797119905 0.06322411459059671 -80.3256958380136
 0.1462559032740222 172.5509557964399 0.4339950505723413 -170.86291230063225 0.06322411459059668 -80.32569583801371 0.7237423019272372 45.1047847971199
 0.723742301927237 45.10478479711991 0.06322411459059667 -80.3256958380136 0.3066234733586522 7.946463548579896 0.16789415787104695 82.0602083654667
 0.06322411459059671 -80.32569583801359 0.7237423019272369 45.10478479711992 0.16789415787104692 82.0602083654667 0.3066234733586522 7.946463548579898
170000000.0 0.4661264302501849 164.84593672525938 0.1486226335452829 148.16934201524322 0.7213931030409991 26.067892069831842 0.06486080544841522 -107.48720207150726
 0.1486226335452829 148.16934201524322 0.46612643025018485 164.84593672525938 0.0648608054484151 -107.48720207150716 0.7213931030409989 26.06789206983184
 0.7213931030409991 26.067892069831842 0.06486080544841517 -107.48720207150728 0.31113583911650355 1.5029603572206096 0.18761760643692205 70.91027525151841
 0.06486080544841519 -107.48720207150727 0.7213931030409992 26.067892069831842 0.18761760643692205 70.91027525151843 0.31113583911650344 1.5029603572206074
180000000.0 0.48827483123743093 140.62410399956812 0.1485668138105456 124.99499778208165 0.7212484843432374 7.030486590744557 0.06440731022597297 -134.63073869535404
 0.14856681381054557 124.99499778208168 0.4882748312374311 140.6241039995681 0.06440731022597297 -134.630738695354 0.7212484843432374 7.030486590744558
 0.7212484843432379 7.0304865907445535 0.06440731022597267 -134.63073869535404 0.3080063528520627 -4.926795325762074 0.20170326160928875 59.41788548027523
 0.06440731022597258 -134.63073869535395 0.7212484843432379 7.0304865907445535 0.20170326160928873 59.41788548027523 0.3080063528520627 -4.92679532576207
190000000.0 0.49771459793234263 116.41147017095852 0.1450249150124776 102.6088186700172 0.7227634258686609 -12.07186094064414 0.06234666482104863 -161.77494151142497
 0.1450249150124775 102.60881867001721 0.49771459793234263 116.4114701709585 0.062346664821048635 -161.77494151142497 0.7227634258686608 -12.07186094064414
 0.7227634258686617 -12.071860940644125 0.062346664821048677 -161.77494151142497 0.2966658816294749 -10.85508283028581 0.2105210740019141 48.16762465527043
 0.06234666482104868 -161.77494151142497 0.7227634258686617 -12.071860940644125 0.2105210740019141 48.167624655270444 0.296665881629475 -10.855082830285799
200000000.0 0.4935229889179887 92.3460649289669 0.14009893698442905 81.18137517774868 0.7246866492482894 -31.246277981625628 0.058529892604464284 170.85979476610152
 0.14009893698442902 81.1813751777487 0.4935229889179887 92.3460649289669 0.05852989260446415 170.85979476610152 0.7246866492482892 -31.246277981625635
 0.7246866492482893 -31.246277981625624 0.05852989260446395 170.85979476610058 0.28116504624372823 -16.30403374834521 0.21331608931497242 36.66363032347713
 0.0585298926044641 170.8597947661006 0.7246866492482892 -31.24627798162561 0.21331608931497242 36.66363032347713 0.2811650462437282 -16.3040337483452
210000000.0 0.4753572740496466 68.1776098740812 0.13370172631350294 59.619606968515654 0.7288449288497888 -50.525992638823304 0.05234600784678467 143.9926739206745
 0.13370172631350294 59.61960696851568 0.47535727404964656 68.1776098740812 0.05234600784678465 143.9926739206745 0.7288449288497886 -50.5259926388233
 0.7288449288497879 -50.52599263882334 0.052346007846784844 143.9926739206748 0.25961773894063883 -21.479102053608116 0.20836993875721246 25.42780416082037
 0.052346007846784864 143.99267392067478 0.7288449288497879 -50.52599263882333 0.20836993875721246 25.42780416082037 0.25961773894063883 -21.47910205360811
220000000.0 0.44298634803018355 44.384040607631945 0.12583092485199995 38.50901254519397 0.7327446630993586 -69.83569657952528 0.044692542806896315 116.97353070681021
 0.12583092485199998 38.50901254519394 0.44298634803018355 44.384040607631945 0.04469254280689619 116.97353070681025 0.7327446630993582 -69.83569657952525
 0.7327446630993585 -69.83569657952526 0.044692542806896544 116.97353070681038 0.23523216261009228 -25.86718446207964 0.19715301647169697 14.428334101921688
 0.04469254280689645 116.97353070681044 0.7327446630993584 -69.83569657952525 0.19715301647169695 14.428334101921678 0.23523216261009228 -25.86718446207963
230000000.0 0.3961031203123154 20.733771643385335 0.11495109643398618 16.34373120626138 0.7397501842505716 -89.28138326247405 0.03371562193755189 91.6648596898292
 0.11495109643398622 16.343731206261385 0.3961031203123154 20.733771643385342 0.03371562193755176 91.664859689829 0.7397501842505715 -89.28138326247404
 0.7397501842505715 -89.28138326247405 0.0337156219375514 91.66485968982902 0.20895086844120148 -30.70598113960554 0.17865350086181106 3.085962068558831
 0.03371562193755136 91.66485968982876 0.7397501842505715 -89.28138326247404 0.1786535008618111 3.085962068558817 0.20895086844120142 -30.705981139605534
240000000.0 0.3346240051534626 -2.381814076776845 0.09950478376275718 -6.692056520422136 0.7478237058215328 -108.98102756414426 0.020752097071182606 72.45174971740065
 0.09950478376275712 -6.69205652042216 0.3346240051534626 -2.381814076776836 0.02075209707118255 72.45174971740077 0.7478237058215326 -108.98102756414427
 0.7478237058215325 -108.98102756414423 0.02075209707118259 72.45174971739984 0.17370612627059653 -35.41818131730541 0.15049874036678293 -7.466439253354509
 0.020752097071182606 72.45174971740028 0.7478237058215322 -108.98102756414423 0.15049874036678287 -7.466439253354517 0.1737061262705966 -35.41818131730542
250000000.0 0.2587702696857372 -23.972243407580603 0.07705225028984812 -29.483580258009116 0.7556013014015086 -128.94606720572912 0.009695463050575994 87.09837351859014
 0.07705225028984812 -29.483580258009134 0.2587702696857372 -23.9722434075806 0.00969546305057598 87.09837351859017 0.7556013014015084 -128.94606720572912
 0.7556013014015086 -128.94606720572912 0.009695463050576005 87.09837351858833 0.13351355988839902 -38.42600875610211 0.11554620865331154 -16.195396444100176
 0.009695463050575982 87.09837351858914 0.7556013014015083 -128.94606720572915 0.11554620865331156 -16.19539644410018 0.13351355988839902 -38.42600875610211
260000000.0 0.17265426090522817 -40.64347557369454 0.04798503070296686 -48.17876857952975 0.7626349257758399 -149.21309442959708 0.0165537944299161 134.81229388890597
 0.04798503070296686 -48.17876857952975 0.1726542609052282 -40.64347557369453 0.016553794429916092 134.81229388890597 0.7626349257758397 -149.21309442959708
 0.7626349257758396 -149.21309442959708 0.016553794429916096 134.81229388890588 0.08795052935771504 -37.20437819693617 0.07523422872725243 -19.71739325275195
 0.0165537944299161 134.81229388890588 0.7626349257758395 -149.21309442959708 0.07523422872725248 -19.717393252751965 0.08795052935771507 -37.20437819693616
270000000.0 0.09255067904998651 -36.17271636542833 0.0192243474975268 -29.73238135144745 0.7669426362218557 -169.7274365511999 0.03414297726627389 121.29819640593718
 0.01922434749752675 -29.73238135144754 0.0925506790499865 -36.17271636542834 0.03414297726627389 121.29819640593725 0.766942636221856 -169.7274365511999
 0.7669426362218557 -169.7274365511999 0.03414297726627385 121.29819640593722 0.0446404916466723 -12.940399913107418 0.03828623067163608 2.085305133178936
 0.03414297726627393 121.2981964059374 0.7669426362218557 -169.7274365511999 0.03828623067163613 2.085305133178974 0.04464049164667229 -12.940399913107424
280000000.0 0.10062482466481062 7.614326760630013 0.03967185029121301 24.617844829860676 0.7656721551398078 169.49882496668073 0.05275186057073399 95.39969151691305
 0.039671850291213014 24.61784482986065 0.10062482466481057 7.614326760629989 0.05275186057073405 95.39969151691321 0.7656721551398076 169.49882496668073
 0.765672155139808 169.49882496668073 0.05275186057073392 95.3996915169131 0.05408418615317268 53.78439127162394 0.04900372052951474 61.50088707718939
 0.05275186057073387 95.39969151691295 0.765672155139808 169.49882496668073 0.049003720529514724 61.500887077189425 0.05408418615317271 53.78439127162388
290000000.0 0.19152073823665586 7.838849261844678 0.07996888614887934 8.56665197374705 0.7588713357826309 148.66947390365007 0.07022713546499416 66.44426619816588
 0.07996888614887934 8.566651973747058 0.1915207382366559 7.838849261844661 0.07022713546499412 66.44426619816576 0.7588713357826308 148.66947390365007
 0.7588713357826306 148.66947390365007 0.07022713546499411 66.44426619816515 0.10785877621468005 68.52398214058518 0.09439442444114331 70.16108146144592
 0.07022713546499408 66.44426619816528 0.7588713357826302 148.66947390365004 0.09439442444114328 70.16108146144592 0.10785877621468007 68.52398214058518
300000000.0 0.28961910553878095 -10.436429446517336 0.11725783314597664 -17.292074029865447 0.7461753202995157 128.04859496935524 0.08529604360804147 36.481307256818766
 0.11725783314597665 -17.292074029865443 0.28961910553878084 -10.436429446517359 0.08529604360804145 36.481307256818766 0.7461753202995154 128.04859496935524
 0.7461753202995155 128.04859496935524 0.08529604360804165 36.4813072568186 0.16489085261179065 66.46809187481453 0.14062948245299142 63.30254649308026
 0.08529604360804172 36.48130725681862 0.7461753202995155 128.04859496935524 0.14062948245299145 63.30254649308023 0.16489085261179073 66.46809187481455
310000000.0 0.37769729225049836 -33.005718692977965 0.1470798296582519 -44.781178123086235 0.7301839236802998 107.72725547426907 0.0969571060850427 6.684127608118783
 0.14707982965825186 -44.781178123086235 0.3776972922504983 -33.00571869297798 0.09695710608504274 6.684127608118816 0.7301839236802998 107.72725547426909
 0.7301839236802998 107.72725547426906 0.0969571060850429 6.6841276081188665 0.2174315943289656 61.070326966255244 0.18158675383811967 53.12335258476669
 0.09695710608504286 6.684127608118853 0.7301839236802998 107.72725547426904 0.1815867538381197 53.12335258476669 0.21743159432896553 61.07032696625523
