!Keysight Technologies,N5222B,MY56022661,A.17.60.13
!Date: Sunday, September 29, 2024 10:35:28
!Correction: S11(C  4-Port  )
!S12(C  4-Port  )
!S13(C  4-Port  )
!S14(C  4-Port  )
!S21(C  4-Port  )
!S22(C  4-Port  )
!S23(C  4-Port  )
!S24(C  4-Port  )
!S31(C  4-Port  )
!S32(C  4-Port  )
!S33(C  4-Port  )
!S34(C  4-Port  )
!S41(C  4-Port  )
!S42(C  4-Port  )
!S43(C  4-Port  )
!S44(C  4-Port  )
!S4P File: Measurements: <S11,S12,S13,S14>,
!<S21,S22,S23,S24>,
!<S31,S32,S33,S34>,
!<S41,S42,S43,S44>:
!
! Created with skrf (http://scikit-rf.org).
# Hz S RI R 50.0 
!freq ReS11 ImS11 ReS12 ImS12 ReS13 ImS13
! ReS14 ImS14
! ReS21 ImS21 ReS22 ImS22 ReS23 ImS23
! ReS24 ImS24
! ReS31 ImS31 ReS32 ImS32 ReS33 ImS33
! ReS34 ImS34
! ReS41 ImS41 ReS42 ImS42 ReS43 ImS43
! ReS44 ImS44
!
10000000.0 0.06628114109748857 0.012375951881380956 0.011827845352942418 0.01588606556174458 0.7372011557375161 -0.4372468558806813 0.0005428561992818584 0.00108724273185624
 0.011690074157556785 0.01651148357330214 0.288269815970278 -0.05136438609220985 -0.0036447700984184217 -0.002540130789918468 0.5578936332556069 -0.3256979981079049
 0.7357076831335815 -0.4362567997328491 -0.0034202625641262894 -0.002070973605853875 0.29404244619778597 0.00644719851000251 -0.012475864945314625 0.01752596870352678
 0.00015716386537278416 0.0008908419535550428 0.5575889978147766 -0.3266643144642113 -0.012453629528695057 0.01791107568662747 0.42316918717721264 -0.13556237202381954
20000000.0 0.0916740987414502 -0.021052892225258173 0.029470211267431275 0.014008452947746887 0.4176110466689615 -0.7383947710045075 0.0018650834205786136 -0.0016983151643164135
 0.029888009098251594 0.01416359910962781 0.28116088719735205 -0.12730536964274525 -0.005772971827782858 -0.00016103399266870482 0.3195562450798073 -0.5606937027732936
 0.41688203617138586 -0.7371912136492373 -0.005716564423288951 -0.0003213947868690393 0.31202855348793956 -0.01883354150912864 0.005418717903881643 0.017934667067084752
 0.0018570084524340124 -0.001725445611177454 0.3194408109099905 -0.5606701278274734 0.0056017523893979945 0.017935823206767978 0.3012331724368615 -0.2082596698652088
30000000.0 0.06818190510475068 -0.06554113019058014 0.03642357248711503 0.00031188785443187275 -0.002121183003191759 -0.8420098893845521 -0.0021465525793773997 -0.005895876781942521
 0.03685794864374056 0.0002906564590054103 0.23347613257814887 -0.2030800503310361 -0.006892003019110594 0.0016315881894114143 -0.0056862259885837214 -0.6407385488340136
 -0.002469346915691655 -0.8408689358521133 -0.00684947929104267 0.0014556818122916336 0.3049903019161499 -0.06064046954407355 0.01323665278144814 0.0005832544858799908
 -0.0024964726587463817 -0.005629895841763519 -0.005505746155532855 -0.6411581251208492 0.013145664851353895 0.0005132387532955536 0.16203205394791279 -0.18347417826264126
40000000.0 0.015123499176555798 -0.06203300416374785 0.03268481631479646 -0.0062564705885618035 -0.4176143308749909 -0.7260249732016338 -0.010166951953277215 -0.002674469816272805
 0.032934335496481754 -0.0061434070936896845 0.15906015836914286 -0.23986109037605927 -0.009392409420697459 0.005154021852414245 -0.3212895774873205 -0.5432194383660144
 -0.4171711022792762 -0.7250956147107479 -0.009372343442176786 0.004978841846067433 0.2672326682758287 -0.0920217775457355 -0.0027455097972328008 -0.01955511326397589
 -0.010309922300977112 -0.0023059070178185264 -0.32146790629458716 -0.5431717049427376 -0.0028909963294586963 -0.01955234760370955 0.08233730734632091 -0.07462726928055273
50000000.0 0.005363409147422388 -0.007016444294066276 0.03701991897742972 -0.0018427475827927364 -0.7197059624012189 -0.4176410288149131 -0.011330693592285302 0.00884002154813857
 0.03774837578716628 -0.0020325785796559085 0.1018181036796924 -0.23665397584045358 -0.009367015886101109 0.014621840216951475 -0.536878480200292 -0.3068428667421937
 -0.7188637731584224 -0.41697129212163603 -0.009345120016134911 0.014544797306729775 0.2128919545855545 -0.0917900673461619 -0.03816408029705708 -0.021098958248653696
 -0.011369141652547043 0.009425391483220677 -0.5366855413444006 -0.3069672286631695 -0.03832124617435545 -0.02102071653731173 0.10017153544305715 0.04918999997335413
60000000.0 0.0734717570736981 0.024221980509065842 0.05976014133569106 -0.008576499665912077 -0.8217859567242165 -0.0017552426821028362 -0.0006046142961354767 0.01723517100358909
 0.060369581735897744 -0.009138018106009824 0.08234548816650576 -0.23379279529807934 0.002594322450319198 0.025324659498128718 -0.6065953775854575 -0.00853297298179506
 -0.8206768125724104 -0.0016864536064473226 0.0024129592700401544 0.025112954842559442 0.17010469585558674 -0.05369807305193336 -0.07346968669023067 0.007259933586740291
 -0.0002890865897851693 0.017534770236958753 -0.6072207451577533 -0.008692884625909426 -0.07354905512507637 0.0073230940771104105 0.19044463299882924 0.12020027318940159
70000000.0 0.15831241713279484 -0.04361810729059093 0.07888828777903056 -0.045747797726867954 -0.7000798083567599 0.397992533190022 0.013369249483898869 0.012717463431169099
 0.07894263375655873 -0.046200494159531806 0.07135330122408853 -0.2707440733107887 0.024516861073057165 0.021946570530659994 -0.5319264443410024 0.27874593236292705
 -0.6989602458864266 0.3973300163484139 0.02447768071122036 0.02193091034397148 0.16513706248277157 0.004136391854271553 -0.08770149718457132 0.058723802869046327
 0.013914487734022339 0.012893961679766777 -0.5324924451780038 0.27921315678379277 -0.08779509529880214 0.058791284045511046 0.2972756003048589 0.11082998691189136
80000000.0 0.15271570597765624 -0.18899220771597866 0.06272697710956311 -0.10054535077860466 -0.4079008943709199 0.6727486048886857 0.01752184481173819 -0.0014202976019838352
 0.06271248434742639 -0.10110556822265648 0.015642751582215994 -0.3402792086122093 0.038552968559574734 -0.0020661798503202287 -0.3361980441780379 0.4993922077116638
 -0.40738140160073116 0.6716275743012314 0.03836114463504963 -0.0020047699217593516 0.20053735662966704 0.05042322701635229 -0.0692731771327186 0.1161750983689982
 0.018003477546837163 -0.0015705441551119963 -0.3365369662460978 0.5000753403246516 -0.06926937903584306 0.11637760365666339 0.3665414625639988 0.036057153585874996
90000000.0 0.016838972371945402 -0.3007658359689325 0.006964611544820459 -0.13732201433881663 -0.037011172659516596 0.7705784560004487 0.008727006983221264 -0.011901745347693338
 0.006855334008753445 -0.13788288778533334 -0.11194120539622188 -0.3844192359446023 0.02711373246030425 -0.03117091549305214 -0.0538840201219868 0.6070950462704339
 -0.037009145518965746 0.7696158829764674 0.027027926966790426 -0.03106683288008534 0.2584243339579563 0.06178895017020876 -0.017038399793959467 0.1576381865428103
 0.009128855204561609 -0.012377307464431164 -0.05386811818538653 0.6078763032805157 -0.016897777298800994 0.1576923712930256 0.36770966642529423 -0.06287456028726507
100000000.0 -0.17955446675546008 -0.28103836984875774 -0.0646256645892341 -0.13119169786624416 0.32659117003878624 0.6919860075472075 -0.003467036969838865 -0.009303730076400283
 -0.06481754678781804 -0.13149869582484583 -0.2757007654078116 -0.3394321011321036 -0.004525340180562005 -0.03944374405556775 0.25741731514537347 0.562650208548147
 0.32635445367342786 0.6911976910950323 -0.004629956565836119 -0.03932016893955559 0.31329914400592895 0.03365423915704284 0.054193515959267545 0.1609635052067696
 -0.0034916867386138306 -0.0100741677137377 0.2577269032777657 0.5635390531705913 0.054258451665287526 0.16087102761201438 0.30478194574226525 -0.13254849697762244
110000000.0 -0.311008792257398 -0.12078058135651171 -0.11766457986872594 -0.08258825172676716 0.6177664605764821 0.4607912707629812 -0.004471183186609588 0.002715047436616394
 -0.11786261059592859 -0.08301233816630114 -0.389157779832332 -0.19336841989783432 -0.02734667567383633 -0.018568870966918175 0.5096271349994712 0.35957809988250267
 0.6169777095536266 0.4598257167829877 -0.027268220923198177 -0.018511509676180826 0.34584265466424186 -0.02563616577039314 0.11413881236724813 0.11680947234818131
 -0.004987598822141269 0.0021767708364257427 0.5103887913017466 0.3604094242988036 0.11419508174899022 0.11668257234061921 0.22163145986730656 -0.13923476259548662
120000000.0 -0.28611359401749686 0.08427203008433473 -0.12668702426543654 -0.015853193647262405 0.7800117373016044 0.11172099330527449 0.0102561640119075 0.007112350549753045
 -0.12695490836265763 -0.0164210864667219 -0.3882199755333926 -0.018876960711166207 -0.01955870688276619 0.006630646743931356 0.6199830654899524 0.053131365800417586
 0.7787477434460812 0.11160877343664612 -0.019502327148914922 0.006673105185501243 0.3390046082281051 -0.10606514064721732 0.12884257707579952 0.042539910032044694
 0.009566299280729957 0.006808037254832172 0.6209360577770754 0.05317749979708419 0.12877378845120133 0.0424073102896669 0.1681949616477669 -0.09652836618547841
130000000.0 -0.12223084141266023 0.18581702444307194 -0.0932312884569319 0.026740733630922685 0.754551916613903 -0.2987272316347897 0.023393986377604988 -0.011903362230879885
 -0.09397398945967768 0.026297521663550268 -0.29984558077234685 0.08563950991837224 0.0013788123586274369 0.004210307589481108 0.5578005957293305 -0.2621509497311817
 0.7533461545850709 -0.2983776661174731 0.0015074667341186815 0.004190958231669525 0.2743243750511417 -0.18002305975253505 0.08605202202713969 -0.02190571216404061
 0.022543590026460072 -0.011593443795719784 0.5586065614255911 -0.2625199282926234 0.08596511677223442 -0.02187218599561061 0.16192017320986035 -0.04717522382801461
140000000.0 0.026640733770973243 0.10483014735072459 -0.06157031090757145 0.020494491373131456 0.5010681842302973 -0.6587389487319243 0.006971517844747106 -0.04145922063260753
 -0.06262683827555851 0.020540888250223138 -0.2206134262116216 0.09193878666151513 -0.0032417691184468966 -0.01803952047898367 0.3501982593478317 -0.4991009766304717
 0.5000756239367523 -0.6578811131726108 -0.0030302640808130762 -0.01818621403989411 0.1587564368636866 -0.1974091368716671 0.005287033594535598 -0.03659626315117259
 0.006431253571010112 -0.04073047774884078 0.35024775190596 -0.49971164749719904 0.005218990890175936 -0.036459124466142384 0.1822306704567959 -0.02381018076930706
150000000.0 -0.0031244547563623083 -0.043921038577989 -0.07950675983280545 0.004789717012873174 0.07715514908726336 -0.8171784346560647 -0.03827436620006254 -0.041864932118304325
 -0.08042208561148162 0.005355443809866474 -0.22338915658857111 0.06939981075237839 -0.03593890578928544 -0.014513582930729407 0.056536457845085285 -0.6005915213908493
 0.07673205660238437 -0.8158168502678733 -0.035826727782491165 -0.014759901838965778 0.055700516764404864 -0.12387138806599485 -0.06639839392575203 0.015689764415182647
 -0.03824658552730874 -0.0409481407141099 0.05651652726462727 -0.6011407217145129 -0.06631907497661504 0.0158293816869796 0.19893120642656342 -0.027880633078124314
160000000.0 -0.16343836036146378 -0.052578968651456164 -0.11649365637287212 0.04135715639801603 -0.3435445867168458 -0.7105976328505075 -0.0671117467343022 0.0038704635163998094
 -0.11691243187008044 0.04221229943238805 -0.28010848527826354 0.11326569115521481 -0.04716627612947587 0.028595809681525718 -0.24524045369005437 -0.5446216569395953
 -0.3434991941407624 -0.7095452670136084 -0.04728635482229094 0.028426878717571075 0.034627178538630655 -0.004119428343391341 -0.08229981829496703 0.10817450039310736
 -0.06647773617079095 0.004617088589005404 -0.24552295230889923 -0.5454436213945083 -0.08214693119782096 0.10808030323079619 0.19541329492026294 -0.04475025699953927
170000000.0 -0.2525839041038888 0.11305184949064653 -0.10333051519439013 0.11556832138018301 -0.6164644529538051 -0.42668669570730916 -0.044336535307891105 0.05704884585045053
 -0.10323730935531042 0.1162330577664747 -0.29432513291319395 0.24567176232208698 -0.009225788421727783 0.06443332422931784 -0.4778647567565119 -0.3483095863406366
 -0.615512029887887 -0.42584326359297064 -0.009347687490393289 0.06438119782854888 0.09240455358831925 0.08439914610906891 -0.032190906785351206 0.18951846754716334
 -0.043419574610142904 0.05723363599609731 -0.4786135765687407 -0.34910611049210255 -0.03212435737487623 0.1894050018209587 0.16906227705052804 -0.05273984596154019
180000000.0 -0.16451103054261118 0.307759758980359 -0.034615598008708705 0.1626609054116802 -0.7141198395977815 -0.08397681003059006 0.010771329958179244 0.07137100083105075
 -0.03442066120563538 0.16322906196114775 -0.19542864644695268 0.3948167831546351 0.04410925816166435 0.051959626825618735 -0.5810484153227666 -0.06352663748432748
 -0.7131311763242563 -0.08376175777818759 0.04394617376039016 0.05202993023555835 0.17476672846024327 0.10970652574565473 0.0548340033568188 0.2208658041310555
 0.011547545548421887 0.07105777514292985 -0.5814517914372048 -0.0637299264317728 0.05482268279713427 0.2206639526850287 0.1336862873150993 -0.03359152447212308
190000000.0 0.05478454964525985 0.38511226689030215 0.04484180159549985 0.15549825684457555 -0.6580131358573833 0.24524336817098455 0.05420010961833765 0.039591772607830686
 0.04496381417489867 0.15586626365883313 -0.002840499431898222 0.455984803300586 0.06535436529391653 0.0026332190932798084 -0.5243552890673852 0.22904119970787118
 -0.6573231520410786 0.2451525824034712 0.06530831511353134 0.0026566185053052962 0.2423212672274445 0.08792447605939133 0.13755592925570634 0.19699615356179867
 0.054654156956866595 0.03899287465225075 -0.5252492184609553 0.22868527771298455 0.13737335265053982 0.19691402510162176 0.11851146851153546 0.01613055930749108
200000000.0 0.2779187538797978 0.2864637877965952 0.10107784540165918 0.11172754771949131 -0.47358320657773295 0.5159661633737208 0.05750661926335275 -0.007734194127646534
 0.10130629198615168 0.11220596808715844 0.18395866024158408 0.385028835283271 0.04159712711584136 -0.040244924658187006 -0.3357195280918471 0.4425127487871088
 -0.47262453274822325 0.5155471611633649 0.04152316847590407 -0.04023278868528692 0.2824749038110067 0.03727951734404421 0.18669064814906025 0.13682986318674606
 0.05746743714823707 -0.00843181183830382 -0.33624904572952297 0.4427645176249101 0.18655743997829685 0.13692526930599883 0.14704228735605057 0.06759321370155331
210000000.0 0.3742084509681874 0.05555336733561002 0.12603767291654858 0.05049254531090887 -0.18588304050314955 0.6875508296698948 0.029361603369741206 -0.034746647285973195
 0.1263964187234822 0.051049105476856996 0.2752050923347323 0.23444435390332286 -7.719100919893621e-05 -0.04643752538697688 -0.0830672391086194 0.5336534291132444
 -0.18498549384397733 0.6870446406419521 -0.0001015154330250771 -0.046391011733363546 0.2854952986180684 -0.027512241379822108 0.19285724165142776 0.06969696802300374
 0.028937428047805917 -0.03529056739534796 -0.08318690616740053 0.5338973889624773 0.19280063432804265 0.06996131901642802 0.20596124989323605 0.08483424171081308
220000000.0 0.2768489741620335 -0.16891390357287236 0.11412230445132489 -0.009622337293817056 0.16615324821192787 0.7139570195395053 -0.0007503782164344462 -0.02996818579509475
 0.11477213737207273 -0.00918248462880173 0.2558381560778147 0.10028588575618332 -0.024278161478469656 -0.022606490198763915 0.169154463895789 0.5031101572709138
 0.1665475620032449 0.7130043471195929 -0.02420329621688356 -0.022449364691051098 0.2473133840715841 -0.08511225877190962 0.16589299523144685 0.01814828180283258
 -0.001288129110480863 -0.030240450001708948 0.1689631585404527 0.5033605565504572 0.16602444024965962 0.018367966549997686 0.26329732549990537 0.05363518163510971
230000000.0 0.04912789043355114 -0.23555048618654095 0.06781839197491726 -0.04511681265439562 0.515873421120456 0.559535511106987 -0.0034394406656514265 -0.009812829924160809
 0.06863978871565751 -0.04500452501224725 0.18269340152516472 0.045851815071032226 -0.014949973127112 0.0034535040272544656 0.3852445421738301 0.37245905172838834
 0.516088115219025 0.5581846751167279 -0.014855831867861633 0.0035635161695140366 0.1710101964652561 -0.10990991494790414 0.11750612520476109 -0.00645086943188769
 -0.004013789103897808 -0.009830498770663321 0.38507309149735025 0.3722072363440012 0.11765552825298735 -0.006341959583317555 0.2836439823910452 -0.015163533635198808
240000000.0 -0.11375033264528608 -0.08275631913422203 0.024246495955762143 -0.025675282565708 0.7481134632245001 0.21806743563581774 0.01350900972272259 -0.010543629367158965
 0.025092723276009518 -0.026034871638575128 0.14024678187472078 0.08187742710608685 0.006872343788522035 -0.0008140244541971109 0.5300880940875722 0.1502932105015982
 0.7469461992908722 0.21735859993378595 0.0069878269734718335 -0.0008753100159167919 0.08987330712872761 -0.07213133189906704 0.06498884260365467 0.007247763400447846
 0.013055426164855524 -0.010104361559080937 0.5297387827235461 0.15027833397135765 0.06501678037059888 0.007169851802019359 0.24351196691429383 -0.08885700998090193
250000000.0 -0.04071187769957133 0.11521798844606232 0.03862444232899798 0.011077154555243225 0.7487102651166136 -0.20545070111147523 0.011786283459721048 -0.039347799149975146
 0.039165004200354236 0.010441317995865153 0.19961119387987075 0.13432996995944813 0.0016993184882215934 -0.025352263746995653 0.5532544856117666 -0.13730460760415775
 0.747880718619203 -0.205146959855989 0.0018211137622378259 -0.025326455511245495 0.05454701460126817 0.012180099572887784 0.03825891681442038 0.057837145687768474
 0.011573356662924843 -0.03873606611108442 0.5530572075770616 -0.13726460948467345 0.03837575834998559 0.05778653158511614 0.14909461691679193 -0.11653755738409084
260000000.0 0.17151314790359976 0.12093294782323495 0.08531089369270276 -0.007797798038932234 0.5223723181599427 -0.5435645283303598 -0.029900384295770452 -0.05399263753995911
 0.08546496259291861 -0.008366295727475014 0.3296505409988327 0.08813277783158696 -0.030862438224530497 -0.0259178399809726 0.41000975344912927 -0.4129370001824861
 0.5207234130494687 -0.5441114188539503 -0.030878989736386246 -0.02600849081737401 0.08339134580159425 0.09100689019557696 0.061098760436446464 0.11437841803246901
 -0.029725098072834 -0.053412309733054976 0.4093921899956117 -0.4129901825007177 0.06121528980046588 0.11425213986432453 0.048314878811291026 -0.06424180878373895
270000000.0 0.2806380887830965 -0.07603345453104055 0.08415839407920228 -0.07316798022926073 0.1794490855566403 -0.7037053807217013 -0.07243144579652808 -0.017852757615740976
 0.08425548422659143 -0.07357786723924685 0.3935951850051103 -0.08264746133790712 -0.04743310127807704 0.008291801427917867 0.12864924801660385 -0.5615116057238765
 0.17927058152182496 -0.702935781038313 -0.04728494528734 0.008204586896447241 0.1421139737673828 0.12689749750737025 0.11912273275657691 0.1338029304808478
 -0.07194882835507856 -0.01769037352377472 0.12897802414767182 -0.5610685694065475 0.11903985478467696 0.13369681337087147 0.008855373227171531 0.052274239257786195
280000000.0 0.17649422412650256 -0.2891635069975968 0.02570412178080797 -0.11182653652986518 -0.17169700695764753 -0.6839403299197327 -0.06642081232407147 0.0406212913700861
 0.02573585811068672 -0.11216140955199147 0.3092973108038881 -0.26127071197530305 -0.026660443739515934 0.03965530159553582 -0.17351039302754012 -0.5258893394564693
 -0.17107985647760265 -0.6828875150899636 -0.026776378837588023 0.03951384604370208 0.1953217016390025 0.12362990608897735 0.16856563607418545 0.10936274814640423
 -0.06596606277719588 0.04056976628637963 -0.17281064550738356 -0.5251747210077958 0.16856470504647236 0.10934801857639145 0.058502954819812866 0.1654105460086898
290000000.0 -0.06286151444232509 -0.3484943843350796 -0.038388750720517284 -0.09594151929331086 -0.4649135854623255 -0.5164204232835155 -0.020083213896476586 0.07112696791646844
 -0.038571053382262424 -0.09632376220788741 0.14114397374706733 -0.32695387724210945 0.005419081843668811 0.04198541887384546 -0.3884863801210705 -0.35236694159780296
