! Created with skrf (http://scikit-rf.org).
# Hz S RI R 50.0 
!freq ReS11 ImS11 ReS12 ImS12 ReS13 ImS13
! ReS14 ImS14
! ReS21 ImS21 ReS22 ImS22 ReS23 ImS23
! ReS24 ImS24
! ReS31 ImS31 ReS32 ImS32 ReS33 ImS33
! ReS34 ImS34
! ReS41 ImS41 ReS42 ImS42 ReS43 ImS43
! ReS44 ImS44
!
10000000.0 0.05482957991093001 0.03638060745455402 0.006873757226715024 0.012545496581040557 0.81161833429006 -0.22218775038317617 -0.005381668494980059 -0.004817950673359305
 0.006873757226715024 0.012545496581040556 0.05482957991093001 0.03638060745455402 -0.005381668494980137 -0.004817950673359303 0.81161833429006 -0.22218775038317617
 0.81161833429006 -0.22218775038317648 -0.005381668494980216 -0.0048179506733593835 0.30166174607149937 0.002255834794024866 0.005207242183769596 0.02669292646286141
 -0.005381668494980295 -0.004817950673359364 0.81161833429006 -0.22218775038317648 0.005207242183769636 0.02669292646286141 0.30166174607149937 0.002255834794024867
20000000.0 0.09767723567577381 0.04973215815586925 0.018660096586814338 0.01889470974451009 0.7245867517007506 -0.41606966456973904 -0.00979471957929504 -0.0027739461654859906
 0.018660096586814348 0.01889470974451009 0.0976772356757738 0.04973215815586925 -0.009794719579295038 -0.0027739461654859893 0.7245867517007506 -0.41606966456973904
 0.7245867517007506 -0.416069664569739 -0.00979471957929504 -0.0027739461654858336 0.3112762894968006 -0.020059270656223895 0.019438232895871994 0.034225375991693625
 -0.00979471957929504 -0.0027739461654858726 0.7245867517007506 -0.416069664569739 0.01943823289587201 0.034225375991693625 0.3112762894968006 -0.020059270656223895
30000000.0 0.1509532422409907 0.03400915849503669 0.03478990794583546 0.017058796196381273 0.5954078612383146 -0.5821038052974183 -0.013211077903773754 -0.00039416502054676045
 0.03478990794583546 0.01705879619638127 0.1509532422409907 0.03400915849503669 -0.013211077903773712 -0.00039416502054679894 0.5954078612383146 -0.5821038052974183
 0.5954078612383147 -0.5821038052974185 -0.013211077903773598 -0.00039416502054691734 0.30548917285562505 -0.040291801473246014 0.027664637002458435 0.04570430857066533
 -0.013211077903773636 -0.00039416502054703524 0.5954078612383147 -0.5821038052974183 0.027664637002458452 0.04570430857066532 0.30548917285562505 -0.04029180147324601
40000000.0 0.19627028792601747 -0.015280460977899818 0.04941299761041706 0.006197749470030504 0.4303185755280958 -0.7102366552456795 -0.01594437788180303 0.005909002421333348
 0.04941299761041707 0.0061977494700305065 0.19627028792601747 -0.01528046097789982 -0.015944377881802984 0.005909002421333387 0.43031857552809577 -0.7102366552456795
 0.43031857552809577 -0.7102366552456796 -0.01594437788180287 0.005909002421333191 0.29997766854549895 -0.05647277113386224 0.04652355475723953 0.056080588065813834
 -0.01594437788180283 0.0059090024213332305 0.43031857552809577 -0.7102366552456796 0.046523554757239446 0.056080588065813834 0.299977668545499 -0.05647277113386224
50000000.0 0.21871945010045232 -0.09101595255026919 0.05928610313508442 -0.012112249180207138 0.24000389994086688 -0.795705162534005 -0.014326822420571202 0.013282848276357374
 0.059286103135084416 -0.012112249180207138 0.21871945010045232 -0.09101595255026919 -0.014326822420571178 0.013282848276357449 0.24000389994086685 -0.795705162534005
 0.24000389994086685 -0.7957051625340048 -0.014326822420571202 0.013282848276357374 0.28806848708520205 -0.07333425919625397 0.06511569192828355 0.05742093419431898
 -0.014326822420571183 0.013282848276357374 0.24000389994086685 -0.7957051625340048 0.06511569192828351 0.05742093419431898 0.28806848708520205 -0.07333425919625397
60000000.0 0.20451641033479956 -0.18109865450881804 0.061038014783592894 -0.035468111220823655 0.03284505112445994 -0.8324351813882085 -0.009154883654367644 0.019849473430955184
 0.061038014783592894 -0.035468111220823634 0.20451641033479956 -0.18109865450881804 -0.009154883654367648 0.01984947343095518 0.03284505112445994 -0.8324351813882085
 0.03284505112445994 -0.8324351813882088 -0.009154883654367634 0.019849473430954872 0.27424018990547894 -0.08184632555888482 0.08509324840611195 0.058459324305252386
 -0.009154883654367629 0.019849473430954948 0.032845051124459936 -0.8324351813882088 0.0850932484061119 0.058459324305252386 0.274240189905479 -0.08184632555888482
70000000.0 0.14841779361392235 -0.26732802847605963 0.053784891055860616 -0.060464900707289194 -0.1781117616482405 -0.8161432805028331 -0.0006208468558467323 0.02339439761862869
 0.053784891055860644 -0.060464900707289194 0.14841779361392232 -0.26732802847605963 -0.0006208468558466713 0.02339439761862868 -0.17811176164824055 -0.8161432805028331
 -0.1781117616482404 -0.8161432805028331 -0.0006208468558466147 0.02339439761862869 0.2624025109209314 -0.09108107806752673 0.10843020867246142 0.05118414411373782
 -0.0006208468558465952 0.02339439761862861 -0.1781117616482404 -0.8161432805028331 0.10843020867246136 0.051184144113737826 0.2624025109209315 -0.09108107806752673
80000000.0 0.053382374504383455 -0.3302008644088278 0.03528745728576338 -0.08429424235947618 -0.37995751261939353 -0.7473071996581662 0.008763173014581732 0.02242464596839241
 0.03528745728576338 -0.0842942423594762 0.053382374504383455 -0.3302008644088278 0.008763173014581693 0.02242464596839248 -0.3799575126193934 -0.7473071996581662
 -0.3799575126193934 -0.7473071996581659 0.008763173014581732 0.022424645968392568 0.2453220698183216 -0.0961563394482899 0.12861504794645934 0.039165454416620255
 0.008763173014581732 0.022424645968392568 -0.3799575126193934 -0.7473071996581659 0.12861504794645937 0.039165454416620255 0.2453220698183216 -0.0961563394482899
90000000.0 -0.0678635346562084 -0.3512902165040216 0.006714337733673904 -0.10196931683901415 -0.5595224100536657 -0.6282055215912817 0.016821900511353714 0.01772738921270922
 0.006714337733673897 -0.10196931683901415 -0.0678635346562084 -0.3512902165040216 0.016821900511353707 0.017727389212709214 -0.5595224100536657 -0.6282055215912817
 -0.5595224100536655 -0.6282055215912816 0.016821900511353554 0.01772738921270922 0.23151979306617257 -0.09524837796304078 0.15081206532901392 0.02053835186962727
 0.016821900511353436 0.01772738921270922 -0.5595224100536654 -0.6282055215912816 0.15081206532901395 0.02053835186962727 0.2315197930661725 -0.09524837796304078
100000000.0 -0.1964911691497158 -0.32139637559111545 -0.03155302981116922 -0.10808018693343656 -0.7041260637133627 -0.46589511313253895 0.022192764182136105 0.009727577660515487
 -0.031553029811169246 -0.1080801869334366 -0.19649116914971576 -0.32139637559111545 0.022192764182136095 0.00972757766051552 -0.7041260637133627 -0.46589511313253895
 -0.7041260637133623 -0.46589511313253873 0.022192764182136025 0.009727577660515801 0.21779971900448997 -0.09154081762158296 0.16586674903694745 -0.007991630254067288
 0.022192764182136025 0.009727577660515723 -0.7041260637133623 -0.4658951131325386 0.16586674903694743 -0.007991630254067284 0.21779971900449 -0.09154081762158296
110000000.0 -0.3069868045290282 -0.23850464834021415 -0.0728400208609749 -0.09797050354244574 -0.8027023877336403 -0.2692053992856707 0.02316749960643594 0.0008612281507828829
 -0.07284002086097491 -0.09797050354244576 -0.3069868045290282 -0.2385046483402141 0.023167499606435854 0.0008612281507828418 -0.8027023877336402 -0.2692053992856707
 -0.8027023877336398 -0.26920539928567067 0.023167499606436097 0.0008612281507827261 0.21154656526328391 -0.08072239431045007 0.17374079853852803 -0.039141254032762224
 0.023167499606436097 0.000861228150782726 -0.8027023877336398 -0.26920539928567067 0.17374079853852806 -0.03914125403276222 0.21154656526328386 -0.08072239431045007
120000000.0 -0.3780079977519949 -0.11390637094568354 -0.10984100945061223 -0.06927723461342655 -0.845421721042189 -0.05232646181599453 0.02094397849967031 -0.007348867208964731
 -0.10984100945061226 -0.06927723461342655 -0.3780079977519949 -0.11390637094568354 0.02094397849967022 -0.007348867208964731 -0.8454217210421889 -0.05232646181599453
 -0.8454217210421893 -0.052326461815994645 0.020943978499669995 -0.007348867208964859 0.21382201136671597 -0.07589227809993038 0.17230815964661897 -0.07560345075160066
 0.02094397849966992 -0.007348867208964864 -0.8454217210421893 -0.052326461815994645 0.17230815964661897 -0.07560345075160066 0.21382201136671597 -0.07589227809993038
130000000.0 -0.3922023988113748 0.030421403154375866 -0.1326331045736311 -0.02564795109607523 -0.8295325458781393 0.16896777177315983 0.015450382419923098 -0.013306290239969916
 -0.1326331045736311 -0.02564795109607523 -0.3922023988113748 0.030421403154375866 0.01545038241992301 -0.013306290239969897 -0.8295325458781392 0.16896777177315983
 -0.8295325458781392 0.16896777177315978 0.015450382419922942 -0.013306290239970152 0.21650249367056607 -0.07468605946296404 0.15892718736679148 -0.10782876307300544
 0.01545038241992302 -0.013306290239970122 -0.8295325458781392 0.16896777177315975 0.1589271873667915 -0.10782876307300544 0.21650249367056604 -0.07468605946296404
140000000.0 -0.34658060029022936 0.16627844113557583 -0.13528892574010723 0.024766100593663867 -0.7537864067768655 0.37753175712126896 0.009437879391586733 -0.016517787804776255
 -0.13528892574010729 0.024766100593663864 -0.34658060029022936 0.16627844113557583 0.009437879391586728 -0.016517787804776203 -0.7537864067768655 0.37753175712126885
 -0.7537864067768655 0.377531757121269 0.009437879391586733 -0.01651778780477633 0.22145958600306143 -0.07973878405024595 0.14126520599440726 -0.13600876282485094
 0.009437879391586733 -0.01651778780477633 -0.7537864067768655 0.377531757121269 0.1412652059944072 -0.13600876282485097 0.2214595860030615 -0.07973878405024595
150000000.0 -0.25254541255871193 0.2678233022610702 -0.11680306714991945 0.07204271513373313 -0.6268090310043989 0.5565080275233206 0.002053766981162936 -0.017360031303291425
 -0.1168030671499195 0.07204271513373318 -0.25254541255871193 0.2678233022610702 0.0020537669811628587 -0.01736003130329141 -0.6268090310043989 0.5565080275233206
 -0.6268090310043991 0.556508027523321 0.002053766981162543 -0.017360031303291425 0.21861830383907938 -0.08877422247637297 0.11522208726395881 -0.16061972209299377
 0.0020537669811625425 -0.017360031303291383 -0.6268090310043991 0.5565080275233208 0.11522208726395884 -0.16061972209299377 0.21861830383907938 -0.08877422247637298
160000000.0 -0.13336866044562953 0.31813910631036924 -0.08222047265960054 0.1062322358192663 -0.45750851758768746 0.6934349208531257 -0.003471784430854768 -0.015086444200742068
 -0.08222047265960056 0.10623223581926634 -0.1333686604456295 0.31813910631036924 -0.003471784430854722 -0.015086444200742058 -0.45750851758768757 0.6934349208531257
 -0.4575085175876876 0.6934349208531259 -0.0034717844308547684 -0.015086444200741832 0.21576704525279727 -0.09285645305341975 0.08591737857586768 -0.17666640966995878
 -0.0034717844308548083 -0.015086444200741792 -0.45750851758768757 0.6934349208531259 0.08591737857586766 -0.17666640966995878 0.21576704525279727 -0.09285645305341976
170000000.0 -0.014278072436233106 0.31765619257272537 -0.03818843494298126 0.12383678090394186 -0.2636187372095992 0.7786153581867588 -0.008112512885413307 -0.01094374376187116
 -0.03818843494298127 0.12383678090394186 -0.0142780724362331 0.31765619257272537 -0.008112512885413337 -0.010943743761871154 -0.2636187372095992 0.7786153581867588
 -0.26361873720959916 0.7786153581867588 -0.008112512885413425 -0.010943743761870846 0.21305706933203636 -0.10073894860385736 0.052220592499680814 -0.18801505060469215
 -0.008112512885413405 -0.010943743761870846 -0.2636187372095992 0.7786153581867588 0.0522205924996808 -0.18801505060469215 0.21305706933203636 -0.10073894860385733
180000000.0 0.08249124235896171 0.27541302055210276 0.004948152949965286 0.12331624396956659 -0.057714746604472976 0.8116593511129864 -0.008419731144881652 -0.005505460303821253
 0.00494815294996531 0.12331624396956657 0.0824912423589617 0.27541302055210276 -0.008419731144881653 -0.005505460303821173 -0.057714746604472976 0.8116593511129863
 -0.05771474660447303 0.8116593511129866 -0.00841973114488163 -0.005505460303821096 0.2090723676250105 -0.10564729725713373 0.01679224027761226 -0.18558002831951445
 -0.008419731144881641 -0.005505460303821175 -0.057714746604473025 0.8116593511129866 0.016792240277612277 -0.18558002831951445 0.2090723676250105 -0.10564729725713373
190000000.0 0.14742487530033732 0.20927481368828804 0.0425312479122269 0.10866264617869519 0.14369174654798242 0.7924550418718956 -0.008194780101936389 -0.002459835430409378
 0.04253124791222692 0.10866264617869519 0.14742487530033732 0.20927481368828804 -0.008194780101936387 -0.002459835430409302 0.14369174654798242 0.7924550418718956
 0.14369174654798259 0.7924550418718956 -0.00819478010193627 -0.002459835430409221 0.20806750768630286 -0.11723236921709665 -0.011265626858964444 -0.1779871957690703
 -0.008194780101936262 -0.002459835430409221 0.14369174654798256 0.7924550418718956 -0.011265626858964447 -0.17798719576907035 0.20806750768630286 -0.11723236921709661
200000000.0 0.17647764969741625 0.135494998937828 0.06947912563622215 0.08445486645890594 0.33253331571045824 0.7276943171618435 -0.0064230592829353774 0.00040550839191445565
 0.06947912563622215 0.08445486645890596 0.17647764969741625 0.135494998937828 -0.006423059282935369 0.00040550839191437054 0.33253331571045824 0.7276943171618436
 0.33253331571045824 0.7276943171618436 -0.0064230592829355735 0.0004055083919139846 0.19612342529324156 -0.1308668327486644 -0.03940239015823388 -0.16503423920083674
 -0.0064230592829355735 0.0004055083919139848 0.33253331571045824 0.7276943171618436 -0.039402390158233894 -0.16503423920083674 0.19612342529324156 -0.1308668327486644
210000000.0 0.17736091404201676 0.06915253173620042 0.08674887282546306 0.05520583286011091 0.4988490673535967 0.6204881102177262 -0.0051729111032482655 0.0015844888065482505
 0.08674887282546304 0.05520583286011092 0.1773609140420168 0.06915253173620042 -0.00517291110324826 0.0015844888065482813 0.4988490673535967 0.6204881102177262
 0.4988490673535967 0.6204881102177262 -0.0051729111032481085 0.001584488806548329 0.1836963617973004 -0.13928454095731052 -0.058108056442104046 -0.14574653146302402
 -0.0051729111032481085 0.0015844888065484077 0.4988490673535967 0.6204881102177262 -0.05810805644210407 -0.14574653146302402 0.1836963617973004 -0.13928454095731052
220000000.0 0.1570671839548396 0.020889518062822104 0.09252936889838805 0.025318180597013414 0.6340773335154736 0.47810033363065485 -0.003959333787218062 0.003338360631356687
 0.09252936889838807 0.025318180597013414 0.15706718395483957 0.020889518062822104 -0.003959333787217982 0.0033383606313566777 0.6340773335154736 0.47810033363065485
 0.6340773335154736 0.47810033363065485 -0.003959333787218141 0.0033383606313567653 0.16614182958973997 -0.14876352303447482 -0.07351592732476481 -0.12897399301231452
 -0.003959333787218062 0.0033383606313567653 0.6340773335154736 0.47810033363065485 -0.07351592732476478 -0.12897399301231452 0.16614182958973997 -0.14876352303447482
230000000.0 0.1287889102362803 -0.007504284739497319 0.08862122833879676 -0.0037981272373145943 0.7332507615459664 0.30634190653648374 -0.0005296747888596046 0.004307731200140256
 0.08862122833879676 -0.0037981272373145956 0.1287889102362803 -0.007504284739497318 -0.0005296747888596068 0.004307731200140268 0.7332507615459664 0.30634190653648374
 0.7332507615459665 0.3063419065364838 -0.0005296747888596046 0.004307731200140217 0.14693766461474264 -0.14964815615359595 -0.08492549536057162 -0.10797752609892276
 -0.0005296747888596045 0.004307731200140275 0.7332507615459665 0.3063419065364838 -0.08492549536057163 -0.10797752609892279 0.14693766461474264 -0.14964815615359595
240000000.0 0.10432288652342742 -0.015970135440829418 0.07678858860108677 -0.027255722017349857 0.7858424626512183 0.1144278236549609 0.002753578379074932 0.0036651697669023214
 0.07678858860108678 -0.027255722017349864 0.10432288652342742 -0.015970135440829415 0.0027535783790748483 0.0036651697669023054 0.7858424626512184 0.11442782365496093
 0.785842462651219 0.11442782365496089 0.002753578379075089 0.0036651697669024784 0.1310492380386759 -0.15091150227243122 -0.09147544165093974 -0.08964474360937363
 0.0027535783790750105 0.0036651697669024884 0.785842462651219 0.11442782365496088 -0.09147544165093974 -0.08964474360937365 0.1310492380386759 -0.15091150227243122
250000000.0 0.09211469636538362 -0.013669649104192862 0.05972472431527604 -0.04381553818854586 0.7895127161809093 -0.08381650840430756 0.005994939699638541 0.0012052625281733613
 0.05972472431527604 -0.04381553818854586 0.09211469636538362 -0.013669649104192862 0.005994939699638613 0.0012052625281733429 0.7895127161809093 -0.08381650840430754
 0.7895127161809093 -0.08381650840430752 0.005994939699638227 0.0012052625281734005 0.11177775311600718 -0.15029038619950483 -0.09773139460541864 -0.06875689355219901
 0.005994939699638306 0.0012052625281733958 0.7895127161809093 -0.08381650840430753 -0.09773139460541864 -0.06875689355219898 0.11177775311600718 -0.15029038619950488
260000000.0 0.09391966740872122 -0.00974713600982386 0.0404726643961405 -0.05226400927063275 0.7450216560350361 -0.27700015113622634 0.007585982389972122 -0.003933392253894157
 0.04047266439614051 -0.05226400927063275 0.09391966740872122 -0.009747136009823864 0.007585982389972038 -0.003933392253894177 0.7450216560350362 -0.27700015113622634
 0.7450216560350361 -0.2770001511362263 0.007585982389972122 -0.0039333922538940394 0.09300246536176028 -0.1485605230130891 -0.09617203639563998 -0.046310416029682104
 0.007585982389972122 -0.003933392253894059 0.7450216560350361 -0.2770001511362263 -0.09617203639563998 -0.046310416029682125 0.09300246536176028 -0.1485605230130891
270000000.0 0.10679717302299645 -0.013571800131764471 0.022851322623792712 -0.053809197729217606 0.6563985664054296 -0.4539424006412739 0.005633344294962197 -0.009615763190359118
 0.022851322623792705 -0.0538091977292176 0.10679717302299646 -0.013571800131764476 0.005633344294962191 -0.009615763190359079 0.6563985664054296 -0.45394240064127395
 0.6563985664054295 -0.4539424006412738 0.005633344294962276 -0.009615763190359118 0.06691102339167745 -0.1444893455057119 -0.09083883094795753 -0.027451605958508832
 0.005633344294962315 -0.00961576319035908 0.6563985664054295 -0.4539424006412738 -0.09083883094795753 -0.0274516059585088 0.06691102339167745 -0.1444893455057119
280000000.0 0.12482930889623209 -0.0314245223542565 0.008371860395908237 -0.05093282166167251 0.5249068573737928 -0.6073091328504985 1.9093342612146636e-05 -0.01385302287073217
 0.008371860395908244 -0.05093282166167251 0.12482930889623209 -0.0314245223542565 1.9093342612181906e-05 -0.013853022870732206 0.5249068573737928 -0.6073091328504985
 0.524906857373793 -0.6073091328504985 1.9093342611989477e-05 -0.013853022870732092 0.04173994639230173 -0.12802103634985204 -0.07998442416008261 -0.009226199939313664
 1.909334261202871e-05 -0.01385302287073217 0.524906857373793 -0.6073091328504985 -0.0799844241600826 -0.009226199939313685 0.04173994639230172 -0.12802103634985204
290000000.0 0.1385859844608308 -0.06581299281143939 -0.002173928209061209 -0.04530043901650737 0.35683153334743395 -0.7248744722541014 -0.006559508830750493 -0.01396961146463975
 -0.0021739282090612114 -0.04530043901650738 0.1385859844608308 -0.06581299281143939 -0.006559508830750475 -0.013969611464639745 0.35683153334743395 -0.7248744722541014
 0.3568315333474341 -0.7248744722541016 -0.006559508830750415 -0.013969611464639906 0.02064620320247205 -0.10767427642618649 -0.06635173293800528 0.0013847678640432346
 -0.006559508830750454 -0.013969611464639906 0.3568315333474341 -0.7248744722541016 -0.06635173293800528 0.0013847678640432346 0.02064620320247205 -0.10767427642618649
300000000.0 0.13727849677782428 -0.11468954489912708 -0.009518616442319664 -0.0389691958509597 0.16023068545064728 -0.7970877665021081 -0.013395719769649725 -0.011537105265208644
