!Keysight Technologies,N5222B,MY56022661,A.17.60.13
!Date: Sunday, September 29, 2024 10:35:28
!Correction: S11(C  4-Port  ) 
!S12(C  4-Port  ) 
!S13(C  4-Port  ) 
!S14(C  4-Port  ) 
!S21(C  4-Port  ) 
!S22(C  4-Port  ) 
!S23(C  4-Port  ) 
!S24(C  4-Port  ) 
!S31(C  4-Port  ) 
!S32(C  4-Port  ) 
!S33(C  4-Port  ) 
!S34(C  4-Port  ) 
!S41(C  4-Port  ) 
!S42(C  4-Port  ) 
!S43(C  4-Port  ) 
!S44(C  4-Port  ) 
!S4P File: Measurements: <S11,S12,S13,S14>,
!<S21,S22,S23,S24>,
!<S31,S32,S33,S34>,
!<S41,S42,S43,S44>:
# Hz S  dB   R 50
10000000 -28.276842 31.162874 -36.958698 63.194126 -0.25261807 -20.618645 -61.741993 106.6604
-36.633915 64.71463 -11.259864 -9.9479914 -47.598465 -127.55583 -2.7860532 -20.228844
-0.27081102 -20.612675 -48.813538 -131.21292 -27.366127 28.412428 -34.882256 65.843109
-62.18819 142.19508 -2.7829869 -20.316475 -34.704048 66.845375 -11.353901 -20.076584
20000000 -23.76503 19.348392 -31.266336 46.02599 -0.32829946 -40.716522 -57.567657 87.586601
-31.138809 45.571342 -10.964957 -21.361317 -44.048347 -155.91341 -2.8099535 -40.175014
-0.34271488 -40.719135 -44.127613 -154.20027 -23.808504 18.934586 -29.201839 47.631702
-57.843521 87.731346 -2.8110051 -40.183098 -29.144138 47.582878 -11.429055 -40.086784
30000000 -21.464029 2.7510035 -27.966755 26.493429 -0.40449566 -60.618954 -53.519917 34.185265
-27.885145 26.08074 -10.673933 -33.894192 -41.414619 -177.49847 -2.8540127 -60.026886
-0.41623291 -60.642975 -41.544243 -176.39464 -21.627462 3.6836786 -25.846888 28.682936
-55.03833 44.490654 -2.8483894 -60.01022 -25.855825 28.529554 -11.590063 -61.114655
40000000 -19.944597 -14.71072 -25.664782 6.6633058 -0.47820356 -80.444649 -50.055019 -7.992609
-25.629772 6.6956525 -10.425759 -46.820015 -39.451481 159.67285 -2.8952265 -79.798019
-0.48881993 -80.450333 -39.592522 160.1357 -20.114342 -12.523305 -23.554623 9.3205042
-51.269001 -4.9890027 -2.894577 -79.813721 -23.563005 9.1691942 -11.913919 -82.244469
50000000 -18.72587 -31.756784 -23.99242 -12.842637 -0.54578567 -100.1944 -47.586575 -43.139145
-23.8997 -12.915132 -10.214811 -60.045567 -37.999599 137.06657 -2.9298999 -99.557289
-0.55683297 -100.20552 -38.042522 136.94911 -18.962563 -29.484127 -21.803318 -9.9363317
-49.075825 -44.868664 -2.931375 -99.537926 -21.805908 -10.096625 -12.414149 -103.53503
60000000 -17.798052 -49.351509 -22.647539 -32.508923 -0.61137676 -119.87436 -45.728313 -79.375252
-22.568998 -32.576725 -10.036144 -73.616608 -36.733234 114.16814 -2.9636419 -119.27087
-0.62302977 -119.87968 -36.919514 114.20524 -18.070614 -46.318768 -20.43907 -29.258717
-46.638149 -79.906029 -2.9547033 -119.25583 -20.434717 -29.334621 -13.063436 -124.95913
70000000 -17.032377 -67.163948 -21.546028 -52.064335 -0.67724264 -139.51216 -43.766125 -112.6024
-21.51152 -52.122486 -9.86059 -87.517014 -35.925156 91.446846 -2.9931703 -138.98291
-0.69117105 -139.51205 -35.956944 91.418816 -17.381987 -63.294277 -19.319551 -48.632961
-44.683941 -114.90403 -2.9827662 -138.99673 -19.308512 -48.67218 -13.867407 -146.53056
80000000 -16.40428 -85.199165 -20.680256 -71.789383 -0.73987859 -159.10974 -42.155144 -143.95813
-20.62591 -71.790359 -9.6846285 -101.66141 -35.081669 68.181755 -3.0266988 -158.68863
-0.75354409 -159.10136 -35.201714 68.188286 -16.780441 -80.523048 -18.40951 -67.912193
-42.768211 -146.01714 -3.0156569 -158.69743 -18.395601 -68.00721 -14.826232 -168.40482
90000000 -15.896819 -103.35489 -19.971685 -91.377602 -0.8034274 -178.64819 -40.574764 -175.17496
-19.909117 -91.354118 -9.5464258 -116.10697 -34.398983 45.398434 -3.0669782 -178.39027
-0.81442255 -178.64613 -34.490185 45.409565 -16.277828 -97.86631 -17.65449 -87.250877
-41.162457 -177.92174 -3.0558257 -178.39842 -17.651291 -87.338181 -16.02162 169.18158
100000000 -15.442174 -121.53371 -19.392393 -110.92574 -0.86424273 161.85114 -39.30883 154.01465
-19.342186 -110.94536 -9.4288321 -130.75047 -33.843323 22.340347 -3.1049545 161.8873
-0.87374365 161.84137 -33.943424 22.162613 -15.863684 -115.64433 -17.038389 -106.62202
-39.955109 151.30923 -3.0918221 161.89548 -17.042288 -106.67805 -17.504265 146.37436
110000000 -15.061054 -139.94092 -18.93293 -130.47598 -0.92145938 142.3914 -38.232178 124.09579
-18.879419 -130.51726 -9.3391857 -145.65479 -33.387901 -1.2410185 -3.1405294 142.2094
-0.93528551 142.37019 -33.446064 -0.9594357 -15.514001 -133.36089 -16.546143 -125.99758
-38.791092 121.92294 -3.1252484 142.23085 -16.545662 -126.06719 -19.359465 123.02725
120000000 -14.740633 -158.67189 -18.585043 -150.02835 -0.97721153 122.96065 -37.309113 96.110786
-18.543297 -150.00352 -9.2640514 -160.79782 -33.053452 -24.521019 -3.1770699 122.54063
-0.99115741 122.96706 -33.087521 -24.378908 -15.210318 -151.5507 -16.153713 -145.38562
-37.715134 93.492531 -3.1638908 122.53739 -16.15546 -145.45415 -21.7269 98.042923
130000000 -14.489018 -177.50967 -18.327616 -169.46487 -1.0281682 103.57049 -36.385639 68.297295
-18.283092 -169.46912 -9.2037191 -176.14972 -32.782948 -48.056522 -3.2208242 102.86716
-1.041301 103.56304 -32.818249 -47.900738 -14.958723 -169.93147 -15.858648 -164.77391
-36.839554 65.898552 -3.2083709 102.86841 -15.863575 -164.79832 -24.840935 69.687454
140000000 -14.289477 163.55191 -18.165918 171.12631 -1.0778453 84.221985 -35.643574 40.967663
-18.116552 171.12523 -9.1754503 168.37256 -32.630497 -71.46891 -3.2661111 83.221458
-1.090968 84.202087 -32.716042 -71.428795 -14.755639 171.3196 -15.656362 175.8671
-36.016396 38.681549 -3.2586086 83.192993 -15.664257 175.82985 -29.208288 30.919645
150000000 -14.147579 144.60202 -18.087954 151.73347 -1.1224715 64.904129 -35.058052 14.220096
-18.03894 151.7587 -9.1796579 152.75981 -32.553806 -95.247765 -3.318476 63.565224
-1.1370025 64.880745 -32.643219 -95.358032 -14.603892 152.40686 -15.544582 156.48637
-35.383713 12.079859 -3.3106558 63.55875 -15.553989 156.46207 -32.886089 -37.907127
160000000 -14.088639 125.62934 -18.09874 132.54601 -1.1673648 45.608482 -34.660522 -12.195179
-18.049358 132.58284 -9.2333584 137.07831 -32.54229 -119.50614 -3.3728471 43.951252
-1.1779135 45.573898 -32.617367 -119.5743 -14.466749 133.40842 -15.500871 137.1299
-34.998596 -14.541878 -3.3604071 43.958832 -15.510994 137.16742 -29.534325 -108.0369
170000000 -14.04449 106.57297 -18.161013 113.43027 -1.1964074 26.330896 -34.298901 -36.835045
-18.115057 113.45798 -9.326375 121.39827 -32.786304 -143.28615 -3.4300988 24.365692
-1.2113974 26.314554 -32.853477 -143.50763 -14.410287 114.23582 -15.556988 117.79012
-34.623734 -39.041771 -3.4144981 24.385885 -15.565576 117.80773 -25.39617 -146.22456
180000000 -14.061588 87.348892 -18.275 94.255241 -1.2126303 7.0357413 -33.753765 -60.063278
-18.216537 94.240646 -9.440608 105.74011 -33.297493 -166.77338 -3.4793508 4.7995129
-1.225361 7.0250645 -33.392334 -166.64548 -14.438548 95.025764 -15.701842 98.556908
-34.038635 -62.106911 -3.4731047 4.8157454 -15.716278 98.577736 -22.425093 -173.85722
190000000 -14.166069 68.200371 -18.481947 75.137863 -1.2346673 -12.26891 -33.408108 -84.10759
-18.432777 75.158401 -9.6013594 90.25853 -33.832218 170.32744 -3.5410717 -14.759604
-1.2437031 -12.282994 -33.894089 170.13252 -14.489456 75.871452 -15.919351 79.43158
-33.678097 -85.981712 -3.5309455 -14.689422 -15.93174 79.494637 -20.223183 161.69023
200000000 -14.349998 49.244629 -18.772213 56.174736 -1.2490181 -31.577406 -33.156124 -107.82403
-18.715324 56.146973 -9.8107071 74.972343 -34.500011 147.59143 -3.6001859 -34.205441
-1.2614632 -31.611116 -34.559296 147.45354 -14.62631 56.91325 -16.214201 60.355991
-33.435856 -109.27419 -3.5919831 -34.1758 -16.220766 60.434731 -18.551722 138.71227
210000000 -14.617362 30.348709 -19.155218 37.27034 -1.2606952 -50.917404 -32.931755 -131.57375
-19.102007 37.283199 -10.040226 59.927685 -35.356277 125.61051 -3.6538973 -53.665733
-1.2698957 -50.975227 -35.380711 125.77963 -14.848427 38.051754 -16.581587 41.308651
-33.226048 -132.72125 -3.6495337 -53.655598 -16.590475 41.452343 -17.233263 116.56633
220000000 -14.923407 12.162576 -19.589195 19.135866 -1.2755431 -70.23642 -33.245979 -154.88887
-19.530207 19.125555 -10.278107 45.402115 -35.933079 103.41137 -3.7204323 -73.023659
-1.2857488 -70.282066 -36.017815 103.59281 -15.07323 19.636374 -16.987734 22.56909
-33.491955 -155.99751 -3.7171805 -72.995132 -16.993561 22.714455 -16.165926 94.536201
230000000 -15.321942 -6.8136559 -20.079071 -0.023751646 -1.2668312 -89.576248 -32.926498 -173.5775
-20.016474 -0.033809468 -10.511083 30.874702 -37.697441 81.518295 -3.7503066 -92.398109
-1.2766072 -89.656647 -37.771378 81.38073 -15.416868 0.48734781 -17.556843 3.2820361
-33.136154 -174.6281 -3.7548902 -92.404861 -17.565035 3.3779938 -15.344748 73.545128
240000000 -15.859187 -24.902189 -20.721937 -18.656197 -1.263279 -109.07882 -32.64946 165.25945
-20.655338 -18.665619 -10.763153 16.895687 -39.603241 63.891331 -3.7940936 -111.80837
-1.2779105 -109.10544 -39.709957 64.272591 -15.965156 -17.946119 -18.219576 -15.554619
-32.899994 164.53983 -3.7995038 -111.8006 -18.214912 -15.514879 -14.559053 52.545517
250000000 -16.395525 -42.299294 -21.485909 -36.891472 -1.2719779 -128.56488 -32.594921 143.87437
-21.414934 -36.905075 -11.005551 3.209626 -41.28476 49.763451 -3.8405328 -131.16821
-1.2820566 -128.56055 -41.389896 49.195927 -16.416073 -36.267551 -18.970104 -34.344757
-32.812542 143.14082 -3.8435581 -131.16989 -18.979578 -34.292915 -13.957695 31.403618
260000000 -16.995457 -59.393456 -22.326365 -54.712315 -1.2766732 -147.9297 -32.710564 123.78508
-22.263062 -54.766663 -11.195969 -10.102738 -43.413658 36.431267 -3.8728518 -150.49994
-1.2857019 -148.0484 -43.513596 37.054329 -17.032206 -54.663895 -19.821928 -53.271702
-32.9119 123.41201 -3.878685 -150.54764 -19.839025 -53.227909 -13.440829 10.339868
270000000 -17.631392 -76.219971 -23.359865 -72.666733 -1.2759807 -167.50847 -32.619377 104.29484
-23.301191 -72.620514 -11.399212 -23.060093 -45.48851 37.945694 -3.9050183 -169.91188
-1.2856455 -167.50612 -45.78783 37.056328 -17.703835 -73.14933 -20.907658 -72.225525
-32.795097 104.13031 -3.9107034 -169.87001 -20.916075 -72.128334 -13.046505 -10.605504
280000000 -18.379944 -92.483131 -24.612103 -89.731621 -1.2816281 172.92612 -32.609646 85.723938
-24.543215 -89.721443 -11.557736 -35.897888 -46.034515 44.369396 -3.9303463 170.70473
-1.2963989 172.95473 -45.983734 46.281357 -18.503422 -91.54261 -22.175219 -91.087517
-32.768715 85.369789 -3.9442756 170.75067 -22.177454 -91.091164 -12.733369 -31.527231
290000000 -19.147278 -108.17484 -26.08724 -105.61362 -1.2948703 153.40045 -32.633678 67.082664
-26.016579 -105.72968 -11.692549 -48.391247 -44.077274 46.248272 -3.9582465 151.35042
-1.3066684 153.38565 -44.228092 46.119629 -19.326998 -110.05213 -23.715977 -110.01733
-32.771351 67.038422 -3.9719925 151.34897 -23.746313 -109.89315 -12.493693 -52.456303
300000000 -19.847996 -122.86401 -27.848715 -119.84652 -1.3085283 133.82657 -32.619122 48.94529
-27.758669 -119.90521 -11.7826 -60.656609 -41.932522 38.342049 -3.9872129 131.96353
-1.3246958 133.86609 -41.941402 37.773518 -20.318552 -128.5448 -25.659933 -128.86699
-32.68626 48.750847 -3.9974115 131.94409 -25.67198 -128.85352 -12.353483 -73.606003
310000000 -20.510908 -137.49417 -29.816282 -131.24161 -1.3283862 114.36494 -32.716736 32.169922
-29.732046 -131.32819 -11.867901 -72.955162 -40.323734 24.54862 -4.0125403 112.5533
-1.3411574 114.33991 -40.333862 25.023859 -21.295103 -147.29172 -28.095917 -148.02129
-32.812611 32.063004 -4.0236988 112.59705 -28.134741 -148.08063 -12.303219 -94.700256
320000000 -21.313223 -151.58411 -32.27248 -137.15463 -1.3440745 94.76487 -32.391159 16.254532
-32.171307 -136.97212 -11.920707 -85.121887 -38.201328 8.7566462 -4.0316935 93.152283
-1.3537128 94.774925 -38.292042 9.3553791 -22.472826 -166.54749 -31.893087 -167.86079
-32.473438 16.109688 -4.0446839 93.176079 -31.891129 -167.62148 -12.347532 -115.97845
330000000 -22.063759 -165.32985 -34.269955 -133.51949 -1.3639467 75.237885 -32.070656 0.46241418
-34.223358 -133.57825 -11.936532 -97.280861 -36.743153 -8.5829372 -4.0523095 73.732513
-1.3722416 75.202675 -36.846073 -8.5028172 -24.068981 173.40109 -38.557449 169.84959
-32.139477 0.38217318 -4.0662146 73.758537 -38.599442 170.55061 -12.47913 -137.33936
340000000 -22.92882 -177.47903 -34.47438 -122.03101 -1.3846217 55.684677 -31.522551 -15.775667
-34.408936 -122.13305 -11.951667 -109.40259 -35.33884 -27.988424 -4.0758085 54.294422
-1.3929245 55.667683 -35.412968 -27.944653 -26.060221 153.66954 -52.547291 6.9546084
-31.567526 -15.920652 -4.0838308 54.391815 -52.496311 5.4386702 -12.692171 -158.96724
350000000 -23.517973 171.4693 -32.575706 -117.35781 -1.4166864 36.086239 -30.840656 -32.896984
-32.526367 -117.11565 -11.934231 -121.67815 -34.09436 -49.30949 -4.1042128 34.87524
-1.4310697 36.070293 -34.188175 -49.045288 -28.300402 133.51506 -35.902679 -38.649887
-30.881931 -33.28846 -4.1108866 34.88522 -35.881664 -38.937222 -12.993167 179.12242
360000000 -23.820004 161.74539 -30.195372 -123.86067 -1.4674904 16.520388 -30.187233 -52.705467
-30.104425 -123.98775 -11.870436 -134.15982 -33.075748 -72.630051 -4.1324267 15.420505
-1.4802819 16.528585 -33.177971 -72.517975 -31.807014 116.19223 -30.535648 -61.646729
-30.206551 -52.923058 -4.1464381 15.425695 -30.546419 -61.636181 -13.370799 157.19359
370000000 -23.753218 149.31911 -28.590059 -137.85985 -1.5253451 -2.7488132 -30.189617 -71.655243
-28.492811 -137.86696 -11.811675 -147.00568 -33.04715 -96.462128 -4.1697817 -3.9440675
-1.5370141 -2.7458403 -33.096939 -96.08728 -35.081741 100.27343 -27.94076 -82.789909
-30.21768 -72.107368 -4.1807847 -3.9022779 -27.924988 -82.925262 -13.761878 134.69618
380000000 -24.412212 135.39247 -27.496485 -149.91869 -1.5173728 -22.018007 -29.641926 -84.552711
-27.426458 -149.97481 -11.76569 -159.64938 -32.806522 -111.57797 -4.173666 -23.256727
-1.5239267 -22.045311 -32.898422 -111.44156 -40.094097 52.700706 -25.978476 -97.832527
-29.689224 -84.889526 -4.1845479 -23.253119 -25.980267 -97.906792 -14.287239 111.12609
390000000 -24.723242 127.516 -26.042961 -164.26982 -1.5356723 -41.668682 -28.446396 -103.10734
-25.988602 -164.25542 -11.644797 -172.51711 -31.707802 -130.94142 -4.1960125 -42.802017
-1.5418001 -41.650623 -31.800573 -130.82243 -41.316311 -61.588959 -23.987368 -115.47357
-28.486799 -103.52522 -4.1999097 -42.806751 -23.981171 -115.62688 -14.980335 87.528893
400000000 -24.383652 119.11092 -24.817816 178.97055 -1.5662558 -61.249729 -27.46117 -123.91562
-24.756363 178.89101 -11.50012 174.39607 -30.829741 -152.52821 -4.2216201 -62.350597
-1.5823482 -61.238918 -30.91326 -152.70392 -34.132488 -116.09247 -22.445194 -134.54196
-27.524015 -124.2939 -4.2276978 -62.32782 -22.438126 -134.71857 -15.764353 63.403111
410000000 -23.714899 110.0576 -23.759048 160.67403 -1.6177086 -80.811768 -26.592766 -146.55765
-23.69449 160.66589 -11.346534 160.90662 -30.043173 -176.10608 -4.254066 -81.948982
-1.6322448 -80.804482 -30.128155 -176.05887 -30.230665 -148.09386 -21.193069 -154.51244
-26.651865 -146.8972 -4.2610559 -81.928329 -21.186394 -154.64314 -16.689625 38.841549
420000000 -22.480844 97.697166 -22.772688 139.74472 -1.7094245 -100.39268 -25.855436 -174.02649
-22.713364 139.72049 -11.18644 146.58443 -29.176954 155.80124 -4.3496413 -101.64421
-1.7206558 -100.38115 -29.229656 155.87648 -27.795092 -178.79097 -20.198246 -177.00766
-25.919605 -174.31184 -4.3533006 -101.58678 -20.200243 -177.14491 -17.757978 15.488111
430000000 -21.982147 71.085594 -23.46701 114.57718 -1.7817584 -118.49214 -28.932657 163.64095
-23.400139 114.54836 -11.406986 131.80463 -32.52079 121.58342 -4.4453554 -119.7318
-1.7918425 -118.51258 -32.601421 121.75517 -30.281706 164.46423 -21.369457 163.42688
-29.012873 163.1842 -4.4536986 -119.70691 -21.369038 163.34636 -17.256519 -10.254563
440000000 -22.634266 62.502632 -23.212763 103.2644 -1.6933239 -138.27272 -26.831038 156.97803
-23.148964 103.25678 -11.33323 119.39126 -31.819223 122.93327 -4.3340406 -139.36154
-1.7058107 -138.25969 -31.877628 122.94975 -26.108255 157.06766 -20.099197 152.61617
-26.90662 156.69968 -4.3387423 -139.37202 -20.106823 152.57454 -18.127073 -45.506851
450000000 -22.027353 48.763229 -22.723236 85.185219 -1.719306 -157.86371 -25.812002 134.92308
-22.664305 85.20443 -11.279804 105.43925 -30.878666 103.57242 -4.3515177 -159.07336
-1.7320346 -157.85069 -30.935226 103.6059 -24.470104 134.68372 -19.3321 134.34213
-25.899076 134.6225 -4.3532858 -159.05721 -19.338682 134.20772 -18.785116 -77.733437
460000000 -21.583244 32.243973 -22.501699 65.999123 -1.7518364 -177.31575 -25.286251 112.54644
-22.437077 65.971893 -11.313424 91.231224 -30.469559 82.748108 -4.3890934 -178.66231
-1.7585799 -177.29205 -30.541769 82.699036 -23.532946 114.5446 -18.879297 115.85816
-25.356455 112.29372 -4.3883834 -178.61975 -18.8869 115.80751 -19.024929 -110.30105
470000000 -21.368671 14.800816 -22.450926 46.647579 -1.7839388 163.29436 -24.921478 90.213799
-22.401136 46.694298 -11.403873 77.01815 -30.258066 62.009102 -4.4328604 161.8856
-1.7952883 163.31786 -30.334387 62.017181 -22.780912 95.23761 -18.572859 97.58931
-24.989399 90.038612 -4.4289961 161.88928 -18.588713 97.545692 -18.835228 -142.17648
480000000 -21.322823 -3.5864239 -22.541159 27.267441 -1.8159275 143.97377 -24.672134 67.906906
-22.488075 27.21467 -11.533283 62.867008 -30.164501 41.276051 -4.4801683 142.43619
-1.8279123 143.93506 -30.234127 41.448177 -22.281515 75.970284 -18.393768 79.479019
-24.732101 67.756134 -4.4840751 142.45074 -18.397858 79.493912 -18.271992 -172.60429
490000000 -21.441267 -22.278866 -22.763369 7.928267 -1.8469253 124.6337 -24.538216 45.443485
-22.696957 7.9493737 -11.693613 48.847908 -30.120092 20.768616 -4.5283294 123.0287
-1.8541771 124.62202 -30.197144 20.819267 -22.018167 58.643402 -18.279877 61.578342
-24.598265 45.354443 -4.5401235 123.08212 -18.289412 61.640114 -17.541927 158.46159
500000000 -21.751678 -41.138641 -23.046808 -11.008305 -1.8701077 105.36305 -24.562828 23.859221
-22.975756 -11.091173 -11.879027 35.069359 -30.257517 1.2700996 -4.5749159 103.75965
-1.880204 105.36572 -30.345655 1.3834103 -21.920652 40.823215 -18.323084 43.56636
-24.623636 23.791525 -4.5837073 103.74981 -18.328632 43.532597 -16.809158 131.74031
510000000 -22.199196 -60.653946 -23.412348 -30.596205 -1.8874584 86.002319 -24.439621 1.9688443
-23.345402 -30.615398 -12.090026 21.443344 -30.105 -18.173038 -4.6161733 84.396927
-1.8996994 85.977417 -30.166887 -18.091145 -21.933403 25.111549 -18.403706 26.720556
-24.505323 1.8965899 -4.6379008 84.426788 -18.417042 26.688625 -16.023443 106.06815
520000000 -22.795677 -79.99324 -23.915199 -49.837296 -1.9171773 66.662987 -24.520527 -20.263447
-23.845839 -49.862675 -12.28817 8.0976143 -30.120882 -38.253529 -4.667635 65.174637
-1.9348401 66.658005 -30.208477 -38.295055 -21.987732 9.8288622 -18.505129 9.6246328
-24.584915 -20.307076 -4.6772404 65.18869 -18.507784 9.6127787 -15.318934 81.387772
530000000 -23.577654 -99.015968 -24.451399 -69.043526 -1.9413851 47.427109 -24.69578 -41.954464
-24.379372 -69.047211 -12.450216 -4.9820685 -30.220774 -57.939648 -4.71136 46.001118
-1.9533969 47.411362 -30.312191 -57.928974 -22.019325 -4.9835725 -18.672918 -7.4340525
-24.743698 -42.012135 -4.721777 45.992409 -18.679699 -7.3833261 -14.688564 57.517761
540000000 -24.351526 -118.22235 -25.062042 -88.681694 -1.9576977 28.151573 -24.881098 -63.28426
-24.996149 -88.830711 -12.592635 -17.938137 -30.354359 -77.09259 -4.7451596 26.794958
-1.9680742 28.106724 -30.455091 -77.021164 -22.152039 -20.761343 -18.961319 -24.147913
-24.935541 -63.298111 -4.7630563 26.841488 -18.969507 -24.111578 -14.133209 34.404121
550000000 -25.237335 -137.3304 -25.746181 -109.07547 -1.9704471 8.8757353 -25.149126 -84.224808
-25.665699 -109.16587 -12.718541 -30.753849 -30.544155 -95.557083 -4.7786274 7.6457214
-1.9851928 8.8475695 -30.62347 -95.63414 -22.343391 -35.898262 -19.296598 -40.683537
-25.210571 -84.254471 -4.7891874 7.6567206 -19.298988 -40.612427 -13.668167 11.65869
560000000 -26.130253 -158.76393 -26.577257 -130.95013 -1.9767301 -10.439029 -25.384005 -104.34991
