! Created with skrf (http://scikit-rf.org).
# Hz S RI R 50.0 
!freq ReS11 ImS11 ReS12 ImS12 ReS13 ImS13
! ReS14 ImS14
! ReS21 ImS21 ReS22 ImS22 ReS23 ImS23
! ReS24 ImS24
! ReS31 ImS31 ReS32 ImS32 ReS33 ImS33
! ReS34 ImS34
! ReS41 ImS41 ReS42 ImS42 ReS43 ImS43
! ReS44 ImS44
!
10000000.0 0.03192196355962586 0.017177420023870398 0.0028362050767850055 0.008540924691435694 0.8680101161036391 -0.1551584853285698 -0.0012110084665926833 -0.0014389285610581087
 0.0028362050767850055 0.008540924691435697 0.03192196355962586 0.017177420023870394 -0.0012110084665926846 -0.0014389285610581176 0.8680101161036391 -0.1551584853285698
 0.8680101161036391 -0.15515848532856974 -0.0012110084665926833 -0.0014389285610580105 0.2610584936747417 0.001729877076588605 -0.021949658119853017 0.007532198291631559
 -0.0012110084665926048 -0.0014389285610580007 0.8680101161036391 -0.15515848532856974 -0.021949658119853038 0.0075321982916315595 0.26105849367474177 0.001729877076588604
20000000.0 0.05033819725433513 0.025427438328834713 0.01029026736306492 0.013692432649723018 0.8259776447742291 -0.30023366133707013 -0.0020944702814169264 -0.002149738405769913
 0.010290267363064926 0.013692432649723018 0.05033819725433512 0.025427438328834713 -0.0020944702814168488 -0.002149738405769911 0.8259776447742291 -0.30023366133707013
 0.8259776447742291 -0.30023366133707036 -0.0020944702814167694 -0.002149738405769795 0.2653924410306225 -0.0009772029621980447 -0.02099407533579073 0.01427588585619168
 -0.002094470281416848 -0.002149738405769795 0.8259776447742291 -0.30023366133707036 -0.020994075335790747 0.01427588585619168 0.2653924410306225 -0.0009772029621980443
30000000.0 0.07410873781815577 0.0238445726481345 0.020879221274220566 0.014176520096555319 0.7609852810185324 -0.434551721358448 -0.00320170601424391 -0.002722132026383139
 0.020879221274220563 0.014176520096555324 0.07410873781815579 0.023844572648134495 -0.003201706014243832 -0.002722132026383137 0.7609852810185324 -0.434551721358448
 0.7609852810185324 -0.43455172135844805 -0.0032017060142437532 -0.002722132026383139 0.2688104389471608 -0.00758705931225108 -0.020069162896930247 0.021169656122272933
 -0.0032017060142436747 -0.002722132026383178 0.7609852810185324 -0.43455172135844805 -0.020069162896930247 0.021169656122272933 0.2688104389471608 -0.007587059312251079
40000000.0 0.09863191410173489 0.008294390426903227 0.03171914302005901 0.009046389205625411 0.6754632550399107 -0.5555636846496694 -0.004468127001856232 -0.002806037944444575
 0.031719143020058994 0.009046389205625411 0.09863191410173491 0.008294390426903227 -0.004468127001856193 -0.002806037944444651 0.6754632550399107 -0.5555636846496694
 0.6754632550399106 -0.5555636846496693 -0.004468127001856154 -0.0028060379444444965 0.26949557798983276 -0.01521583005277887 -0.01855409634404824 0.02819264980475042
 -0.004468127001856154 -0.0028060379444445355 0.6754632550399106 -0.5555636846496693 -0.018554096344048258 0.02819264980475042 0.2694955779898328 -0.015215830052778868
50000000.0 0.11850127875229753 -0.01888344062948369 0.04069397176036442 -0.001530197997445325 0.5717441502020608 -0.6609013990411436 -0.005867744307214172 -0.0025635459579582227
 0.040693971760364406 -0.0015301979974453206 0.11850127875229756 -0.018883440629483692 -0.005867744307214092 -0.002563545957958259 0.5717441502020608 -0.6609013990411436
 0.571744150202061 -0.6609013990411439 -0.005867744307213858 -0.0025635459579583797 0.2682901206597368 -0.02321678673537706 -0.01665112352757778 0.035012372984817776
 -0.00586774430721378 -0.0025635459579583402 0.571744150202061 -0.6609013990411439 -0.01665112352757776 0.035012372984817776 0.26829012065973673 -0.02321678673537706
60000000.0 0.12751008476216774 -0.056775003238223244 0.044890667187032156 -0.01670337135985118 0.4523776373369281 -0.7482565339132216 -0.007158967410845024 -0.001999457539480101
 0.04489066718703216 -0.01670337135985119 0.12751008476216774 -0.05677500323822323 -0.007158967410845022 -0.0019994575394800197 0.4523776373369281 -0.7482565339132218
 0.45237763733692793 -0.7482565339132218 -0.007158967410845103 -0.001999457539480101 0.2647069176542004 -0.030807042569417038 -0.014372463407622337 0.04219070464179239
 -0.007158967410845064 -0.0019994575394800223 0.45237763733692793 -0.7482565339132218 -0.014372463407622316 0.04219070464179239 0.2647069176542004 -0.030807042569417038
70000000.0 0.12218620518765869 -0.10092623473921898 0.04315383803366455 -0.03423745927974597 0.3195195183991557 -0.8147397242376145 -0.008507685760459889 -0.0011313518543961604
 0.04315383803366454 -0.03423745927974596 0.12218620518765869 -0.10092623473921898 -0.008507685760459866 -0.0011313518543961585 0.31951951839915566 -0.8147397242376145
 0.31951951839915566 -0.8147397242376145 -0.00850768576045981 -0.0011313518543964746 0.25977758109357385 -0.0377780130415697 -0.011384556302008648 0.0492228377593321
 -0.00850768576045983 -0.0011313518543964746 0.31951951839915566 -0.8147397242376145 -0.011384556302008648 0.0492228377593321 0.25977758109357385 -0.0377780130415697
80000000.0 0.09966593875375332 -0.145766859505112 0.03361310882799204 -0.051571638897416346 0.17685540411250233 -0.8583647669848494 -0.00972155082117717 1.9521851467047793e-05
 0.03361310882799203 -0.051571638897416346 0.09966593875375333 -0.145766859505112 -0.009721550821177156 1.9521851466970727e-05 0.17685540411250233 -0.8583647669848494
 0.17685540411250236 -0.8583647669848494 -0.00972155082117713 1.952185146689079e-05 0.2531171552854761 -0.04378903535904812 -0.008063877817142396 0.05637326425550603
 -0.00972155082117714 1.9521851466890703e-05 0.17685540411250236 -0.8583647669848494 -0.008063877817142356 0.05637326425550603 0.25311715528547607 -0.04378903535904813
90000000.0 0.0600547383123396 -0.18369247857675966 0.017526090156082613 -0.06555371356735572 0.027942734673696863 -0.8772255648756588 -0.011092064381552285 0.0016258265657195607
 0.017526090156082627 -0.06555371356735573 0.060054738312339595 -0.18369247857675966 -0.011092064381552287 0.0016258265657194827 0.02794273467369686 -0.8772255648756588
 0.027942734673696873 -0.8772255648756588 -0.011092064381552339 0.0016258265657198747 0.24531992565608485 -0.04869325240348381 -0.003786525401311291 0.06348970356254179
 -0.011092064381552342 0.0016258265657197962 0.02794273467369687 -0.8772255648756588 -0.003786525401311311 0.06348970356254179 0.24531992565608488 -0.04869325240348381
100000000.0 0.005512343823891358 -0.2089514366366615 -0.0045221262466514514 -0.07320538478783149 -0.12297619321603509 -0.8704546421475782 -0.012276970199919484 0.003812014701856033
 -0.004522126246651451 -0.07320538478783147 0.005512343823891358 -0.20895143663666152 -0.012276970199919478 0.0038120147018559543 -0.12297619321603508 -0.870454642147578
 -0.12297619321603509 -0.870454642147578 -0.012276970199919444 0.003812014701856033 0.2359325197814765 -0.05214062162895496 0.0009646669124738354 0.0704779795855867
 -0.012276970199919444 0.003812014701856033 -0.12297619321603508 -0.870454642147578 0.0009646669124738543 0.0704779795855867 0.2359325197814765 -0.05214062162895496
110000000.0 -0.05797260922908982 -0.2151217872475444 -0.028800578442560964 -0.07264408602373457 -0.2713684036725538 -0.8372512240467511 -0.013193223406171578 0.006752117389034574
 -0.028800578442560947 -0.07264408602373457 -0.057972609229089825 -0.2151217872475444 -0.013193223406171632 0.006752117389034571 -0.2713684036725538 -0.8372512240467511
 -0.2713684036725538 -0.8372512240467509 -0.0131932234061715 0.006752117389034574 0.22624702965118554 -0.05313033404581163 0.006996559264093871 0.07735373505989523
 -0.013193223406171538 0.006752117389034574 -0.2713684036725538 -0.8372512240467509 0.00699655926409387 0.07735373505989522 0.22624702965118554 -0.05313033404581161
120000000.0 -0.12448892509746864 -0.1997364759932368 -0.052661590863998686 -0.06310478170390572 -0.41219478260834197 -0.7782151448617239 -0.013396178080982079 0.010325085330676269
 -0.052661590863998686 -0.0631047817039057 -0.12448892509746864 -0.19973647599323682 -0.013396178080982075 0.010325085330676264 -0.41219478260834197 -0.7782151448617239
 -0.412194782608342 -0.7782151448617242 -0.013396178080982079 0.010325085330676111 0.2164520253894292 -0.0523949936144685 0.01371008568085576 0.08363485574254384
 -0.013396178080982079 0.010325085330676189 -0.412194782608342 -0.7782151448617242 0.013710085680855738 0.08363485574254384 0.2164520253894292 -0.0523949936144685
130000000.0 -0.18522012021998482 -0.16241232110662887 -0.07198914667893401 -0.04560231906954241 -0.5407366974906743 -0.6947306682080542 -0.012545083652334144 0.01451849584980743
 -0.07198914667893401 -0.04560231906954241 -0.18522012021998482 -0.16241232110662887 -0.012545083652334178 0.014518495849807427 -0.5407366974906743 -0.6947306682080542
 -0.5407366974906743 -0.6947306682080542 -0.012545083652334066 0.01451849584980743 0.20726705764400402 -0.04956863535059805 0.021575615025860737 0.08962729258709419
 -0.012545083652334144 0.014518495849807314 -0.5407366974906743 -0.6947306682080542 0.021575615025860737 0.08962729258709419 0.20726705764400402 -0.04956863535059804
140000000.0 -0.23360807462136632 -0.10599301122856698 -0.08494969200700825 -0.022290036610145204 -0.6521028498685056 -0.5895559494576377 -0.010278410020838798 0.01877246870937507
 -0.08494969200700825 -0.022290036610145215 -0.23360807462136632 -0.10599301122856697 -0.010278410020838756 0.01877246870937502 -0.6521028498685056 -0.5895559494576376
 -0.6521028498685056 -0.5895559494576377 -0.010278410020838876 0.01877246870937499 0.1987721223466397 -0.0456275812895288 0.03026774473256712 0.09438528989917756
 -0.010278410020838798 0.018772468709374872 -0.6521028498685056 -0.5895559494576377 0.0302677447325671 0.09438528989917756 0.1987721223466397 -0.0456275812895288
150000000.0 -0.2628178665339998 -0.03553694555485142 -0.08924096233967595 0.003933740525087209 -0.7426613572923699 -0.4665893550854587 -0.006482456589508841 0.022663940952724684
 -0.08924096233967597 0.003933740525087206 -0.26281786653399974 -0.03553694555485142 -0.00648245658950884 0.02266394095272472 -0.7426613572923699 -0.4665893550854587
 -0.7426613572923698 -0.4665893550854587 -0.006482456589508684 0.022663940952724684 0.191205551696464 -0.03992920531536048 0.039689240884149324 0.09841926796140003
 -0.006482456589508763 0.022663940952724726 -0.7426613572923698 -0.4665893550854587 0.039689240884149324 0.09841926796140005 0.191205551696464 -0.03992920531536049
160000000.0 -0.2699205799539931 0.04223869369052915 -0.08559593768625089 0.030165326248328624 -0.8095618751196589 -0.33017563962586827 -0.0010901837507610367 0.02557256024349894
 -0.08559593768625094 0.030165326248328624 -0.2699205799539931 0.04223869369052914 -0.001090183750760959 0.025572560243498913 -0.8095618751196589 -0.3301756396258682
 -0.8095618751196586 -0.3301756396258682 -0.0010901837507610364 0.02557256024349894 0.18513927250257978 -0.03342895837304016 0.04972244955577037 0.10106128870715791
 -0.0010901837507610369 0.02557256024349896 -0.8095618751196586 -0.3301756396258682 0.04972244955577038 0.10106128870715791 0.18513927250257978 -0.03342895837304017
170000000.0 -0.2527318722374633 0.12041875227975919 -0.07380087084751595 0.05369670600421201 -0.8510219062319816 -0.18517889016401018 0.005064048926724497 0.0268504952548882
 -0.07380087084751594 0.05369670600421201 -0.25273187223746335 0.12041875227975919 0.005064048926724417 0.02685049525488817 -0.8510219062319814 -0.18517889016401012
 -0.8510219062319816 -0.1851788901640102 0.005064048926724497 0.02685049525488816 0.18053255331856477 -0.02630775316908045 0.06007109810169007 0.1024950572089359
 0.005064048926724497 0.02685049525488817 -0.8510219062319816 -0.1851788901640102 0.06007109810169004 0.1024950572089359 0.1805325533185648 -0.026307753169080447
180000000.0 -0.21354808911191536 0.19193777251348665 -0.05665013049573875 0.07320328948905963 -0.8667811335067686 -0.03637665651674132 0.011293779668077883 0.026397103885658267
 -0.05665013049573875 0.0732032894890596 -0.21354808911191536 0.19193777251348668 0.011293779668077878 0.026397103885658278 -0.8667811335067686 -0.03637665651674133
 -0.8667811335067688 -0.03637665651674131 0.011293779668077725 0.026397103885658146 0.17695226216164328 -0.019960133345977765 0.0702452900860189 0.10178939949302647
 0.011293779668077647 0.026397103885658153 -0.8667811335067688 -0.03637665651674132 0.0702452900860189 0.10178939949302646 0.17695226216164328 -0.019960133345977755
190000000.0 -0.1540526247223837 0.2501472645197763 -0.03443759837161354 0.0867900208433296 -0.8567211160711636 0.11173273490092271 0.017489670131934268 0.02431263540527415
 -0.034437598371613545 0.08679002084332953 -0.1540526247223837 0.25014726451977637 0.01748967013193426 0.024312635405274164 -0.8567211160711636 0.1117327349009227
 -0.8567211160711641 0.1117327349009226 0.017489670131934268 0.02431263540527416 0.17346676696185484 -0.012976421961555408 0.07953293307094454 0.10047869984174805
 0.017489670131934268 0.02431263540527415 -0.8567211160711641 0.11173273490092259 0.07953293307094451 0.10047869984174804 0.1734667669618549 -0.012976421961555396
200000000.0 -0.07946083853583534 0.28943659778701497 -0.009731107096226552 0.09400604679359069 -0.8213238424086671 0.25477817185690854 0.023240022639596986 0.02065408435573227
 -0.009731107096226554 0.09400604679359066 -0.07946083853583534 0.289436597787015 0.0232400226395969 0.020654084355732266 -0.821323842408667 0.25477817185690854
 -0.821323842408667 0.2547781718569083 0.02324002263959683 0.02065408435573168 0.17172822501758545 -0.0058885439942665185 0.08897663883711093 0.09810306750779411
 0.02324002263959691 0.0206540843557317 -0.821323842408667 0.25477817185690826 0.08897663883711093 0.0981030675077941 0.17172822501758545 -0.005888543994266506
210000000.0 0.005542016274089161 0.30606373918577884 0.016675594353133552 0.09397234421992898 -0.7630457431543524 0.38888448836136585 0.027871745709711963 0.01568793295250592
 0.01667559435313355 0.093972344219929 0.005542016274089161 0.30606373918577884 0.027871745709711956 0.015687932952505916 -0.7630457431543524 0.38888448836136585
 -0.7630457431543519 0.3888844883613658 0.027871745709712122 0.015687932952506076 0.16954030077324403 0.0009258371222049865 0.09703548768194863 0.09490775431143782
 0.027871745709712122 0.015687932952506038 -0.7630457431543519 0.3888844883613658 0.09703548768194863 0.09490775431143782 0.16954030077324403 0.0009258371222049792
220000000.0 0.09243649352672083 0.2982188516935813 0.04164606078531684 0.08730426914087208 -0.6833675522550349 0.5097130908213398 0.03133052396822096 0.009423029763739234
 0.04164606078531685 0.08730426914087208 0.09243649352672083 0.2982188516935813 0.03133052396822091 0.009423029763739274 -0.6833675522550349 0.5097130908213396
 -0.6833675522550349 0.5097130908213396 0.03133052396822112 0.009423029763739234 0.16873049456318623 0.008864113721404747 0.1050879011191797 0.09170331659493812
 0.03133052396822108 0.009423029763739273 -0.6833675522550349 0.5097130908213396 0.1050879011191797 0.09170331659493809 0.16873049456318626 0.008864113721404766
230000000.0 0.17516954194563575 0.26524460498992053 0.06435890208393337 0.07362618002702144 -0.5857037375552886 0.6154254705637551 0.03309908864410842 0.0030140070335150553
 0.06435890208393337 0.07362618002702144 0.17516954194563575 0.26524460498992053 0.03309908864410833 0.0030140070335150566 -0.5857037375552886 0.6154254705637551
 -0.5857037375552886 0.615425470563755 0.03309908864410818 0.003014007033515212 0.16993969184410856 0.015123078471889841 0.1135808168911541 0.08711188029218198
 0.0330990886441081 0.003014007033515173 -0.5857037375552886 0.615425470563755 0.1135808168911541 0.08711188029218198 0.16993969184410856 0.01512307847188985
240000000.0 0.2467176123876093 0.2095430889104648 0.0832771272580027 0.054312736988960955 -0.472513184840017 0.703058434226942 0.033338905381873674 -0.0035539339351560906
 0.08327712725800271 0.054312736988960934 0.2467176123876093 0.2095430889104648 0.03333890538187367 -0.0035539339351560472 -0.472513184840017 0.7030584342269419
 -0.472513184840017 0.7030584342269418 0.03333890538187352 -0.0035539339351561695 0.16873436162071606 0.02083537780796959 0.11999048191502931 0.08169897637088679
 0.0333389053818736 -0.0035539339351561296 -0.4725131848400171 0.7030584342269418 0.1199904819150293 0.08169897637088679 0.1687343616207161 0.020835377807969593
250000000.0 0.3005018147543438 0.13429134941052678 0.09638532134710596 0.029984480574908205 -0.34656132812519874 0.7703973475105753 0.032433551047876055 -0.01021142488216323
 0.09638532134710596 0.029984480574908195 0.3005018147543438 0.13429134941052678 0.03243355104787605 -0.010211424882163223 -0.34656132812519874 0.7703973475105753
 -0.3465613281251987 0.7703973475105753 0.03243355104787598 -0.010211424882163386 0.16871952152490216 0.028402941567957297 0.12603142791975602 0.07654404089221917
 0.032433551047876 -0.010211424882163308 -0.34656132812519874 0.7703973475105753 0.126031427919756 0.07654404089221917 0.1687195215249022 0.028402941567957304
260000000.0 0.3315874744262628 0.04583027674442491 0.1025611488717898 0.0026557152738423432 -0.21160275060038347 0.8158571690860041 0.030001017283071245 -0.016438758460592052
 0.1025611488717898 0.0026557152738423476 0.3315874744262628 0.04583027674442491 0.030001017283071238 -0.016438758460592045 -0.21160275060038347 0.8158571690860041
 -0.21160275060038344 0.8158571690860039 0.030001017283071245 -0.016438758460592052 0.16961460137307752 0.03569824952343089 0.13186196925455207 0.07109017796366385
 0.030001017283071245 -0.016438758460592052 -0.21160275060038344 0.8158571690860039 0.13186196925455207 0.07109017796366385 0.16961460137307754 0.03569824952343088
270000000.0 0.3361190440323395 -0.04917081076111893 0.10102242046806588 -0.02606751066699557 -0.07170502827808126 0.838392338251792 0.026570880840025506 -0.021899323793624883
 0.10102242046806585 -0.026067510666995565 0.33611904403233955 -0.04917081076111894 0.02657088084002549 -0.021899323793624872 -0.07170502827808126 0.838392338251792
 -0.07170502827808123 0.838392338251792 0.026570880840025474 -0.021899323793624883 0.17101510032729408 0.04296564093577239 0.1372154784403513 0.06493914484102205
 0.026570880840025485 -0.021899323793624803 -0.07170502827808124 0.8383923382517919 0.13721547844035134 0.06493914484102206 0.17101510032729406 0.04296564093577238
280000000.0 0.3130071601866834 -0.14326051682339486 0.09125435458294846 -0.05404816126955921 0.07020683864057203 0.8372112706148663 0.022148280475601988 -0.026506992240794676
 0.09125435458294848 -0.05404816126955921 0.31300716018668334 -0.14326051682339486 0.022148280475601998 -0.02650699224079459 0.07020683864057203 0.8372112706148661
 0.07020683864057199 0.8372112706148664 0.02214828047560194 -0.026506992240794676 0.1728170687945909 0.05003152606328053 0.14173886909227848 0.058501149288945405
 0.02214828047560193 -0.026506992240794756 0.070206838640572 0.8372112706148664 0.1417388690922785 0.0585011492889454 0.17281706879459088 0.05003152606328053
290000000.0 0.26315542434712597 -0.22812844742685628 0.07369933512436759 -0.07876171059009367 0.21033365290892547 0.8125867710390707 0.0169861291580247 -0.03025403619569555
 0.07369933512436759 -0.07876171059009367 0.26315542434712597 -0.22812844742685628 0.016986129158024662 -0.03025403619569562 0.2103336529089255 0.8125867710390707
 0.21033365290892547 0.8125867710390704 0.01698612915802462 -0.030254036195696023 0.17515493122445353 0.057985328728750056 0.14599277126232507 0.051967173002786374
 0.01698612915802462 -0.030254036195695944 0.21033365290892547 0.8125867710390704 0.14599277126232507 0.05196717300278635 0.17515493122445353 0.05798532872875008
300000000.0 0.1899698141985068 -0.2959601238633336 0.0488411860279138 -0.09792404003623968 0.3441173952032538 0.7647731994072708 0.011338645345912293 -0.03296840576745035
