! Created with skrf (http://scikit-rf.org).
# Hz S DB R 50.0 
!freq dBS11 angS11 dBS12 angS12 dBS13 angS13
! dBS14 angS14
! dBS21 angS21 dBS22 angS22 dBS23 angS23
! dBS24 angS24
! dBS31 angS31 dBS32 angS32 dBS33 angS33
! dBS34 angS34
! dBS41 angS41 dBS42 angS42 dBS43 angS43
! dBS44 angS44
!
10000000.0 -28.81379676391714 28.284989037487755 -40.91560805239939 71.63009901147497 -1.0929082309048486 -10.134693837261226 -54.513579524852524 -130.08410959478422
 -40.91560805239939 71.63009901147498 -28.81379676391714 28.284989037487748 -54.513579524852496 -130.08410959478408 -1.0929082309048486 -10.134693837261226
 -1.0929082309048486 -10.134693837261223 -54.51357952485288 -130.08410959478613 -11.665052753760026 0.37965899338724607 -32.68796951028799 161.05993816160142
 -54.51357952485314 -130.0841095947845 -1.0929082309048486 -10.134693837261223 -32.687969510287985 161.05993816160142 -11.665052753760026 0.3796589933872458
20000000.0 -24.975061399842502 26.79980521152352 -35.32580873201837 53.074057022709994 -1.1216936211541277 -19.975641166790748 -50.4536289749523 -134.2539360038004
 -35.325808732018366 53.07405702270998 -24.975061399842502 26.799805211523527 -50.45362897495246 -134.25393600379934 -1.1216936211541277 -19.975641166790748
 -1.1216936211541277 -19.975641166790762 -50.45362897495286 -134.2539360037998 -11.522170138626395 -0.21096815045832232 -31.907419613889253 145.7844571899195
 -50.4536289749527 -134.25393600380087 -1.1216936211541277 -19.975641166790762 -31.907419613889253 145.78445718991952 -11.522170138626395 -0.21096815045832223
30000000.0 -22.17479458039167 17.835639731339164 -31.959181117009013 34.17561970283664 -1.146762188621783 -29.72802065385552 -47.52986574159549 -139.62837963021877
 -31.959181117009013 34.175619702836656 -22.174794580391666 17.835639731339157 -47.529865741595614 -139.62837963021806 -1.146762188621783 -29.72802065385552
 -1.146762188621783 -29.72802065385552 -47.52986574159574 -139.62837963021735 -11.407619071975079 -1.6167195792914564 -30.701083901748838 133.47137581714273
 -47.52986574159581 -139.62837963021627 -1.146762188621783 -29.72802065385552 -30.701083901748838 133.47137581714273 -11.407619071975079 -1.6167195792914562
40000000.0 -20.089046137872565 4.8069434344610285 -29.63394579692705 15.918299381474975 -1.1639442120042485 -39.43705172282149 -45.553618470264055 -147.87068071621195
 -29.633945796927055 15.91829938147498 -20.089046137872565 4.806943434461028 -45.55361847026405 -147.870680716211 -1.1639442120042485 -39.43705172282149
 -1.1639442120042507 -39.43705172282149 -45.55361847026424 -147.8706807162122 -11.375144807999826 -3.2315121715114974 -29.434457756563805 123.34964283632631
 -45.5536184702642 -147.87068071621184 -1.1639442120042507 -39.43705172282149 -29.434457756563802 123.34964283632634 -11.375144807999826 -3.2315121715114965
50000000.0 -18.41663524252366 -9.054084065283032 -27.803262028222523 -2.1534540876578925 -1.1708742709863589 -49.13699918157339 -43.87192934213887 -156.40006966168613
 -27.803262028222527 -2.153454087657887 -18.416635242523657 -9.054084065283032 -43.871929342138955 -156.40006966168556 -1.1708742709863589 -49.13699918157339
 -1.1708742709863555 -49.13699918157338 -43.871929342139175 -156.40006966168372 -11.395505406317035 -4.945833523772732 -28.23004561948011 115.43474481226453
 -43.871929342139296 -156.40006966168374 -1.1708742709863555 -49.13699918157338 -28.23004561948011 115.43474481226451 -11.395505406317037 -4.945833523772733
60000000.0 -17.10361496375288 -24.001445946069644 -26.39373529953769 -20.409734050359674 -1.166035554827929 -58.84386625443898 -42.57678370040659 -164.39526380037736
 -26.393735299537685 -20.40973405035968 -17.10361496375288 -24.00144594606964 -42.576783700406615 -164.395263800378 -1.166035554827928 -58.84386625443898
 -1.166035554827928 -58.84386625443899 -42.5767837004065 -164.39526380037756 -11.486265104527938 -6.638316698848536 -27.018844834175198 108.81165297631706
 -42.57678370040657 -164.39526380037805 -1.166035554827928 -58.84386625443899 -27.018844834175205 108.81165297631703 -11.486265104527938 -6.638316698848536
70000000.0 -16.00056898847098 -39.556826138846006 -25.179189615289964 -38.42783574005205 -1.15831593053676 -68.58619281318988 -41.327643115386444 -172.42524975472907
 -25.179189615289964 -38.427835740052046 -16.00056898847098 -39.556826138846006 -41.32764311538647 -172.42524975472907 -1.15831593053676 -68.58619281318988
 -1.15831593053676 -68.58619281318988 -41.32764311538648 -172.42524975472693 -11.61707856097488 -8.274204460156316 -25.93034950361332 103.02272860185116
 -41.327643115386465 -172.42524975472696 -1.15831593053676 -68.58619281318988 -25.93034950361332 103.02272860185116 -11.61707856097488 -8.274204460156316
80000000.0 -15.061061071488549 -55.63820788244556 -24.214209510147086 -56.90469353615214 -1.1460038100602699 -78.35783376105924 -40.245271469885154 179.88494446879346
 -24.214209510147086 -56.904693536152145 -15.061061071488549 -55.63820788244556 -40.245271469885175 179.88494446879392 -1.1460038100602699 -78.35783376105924
 -1.1460038100602699 -78.35783376105924 -40.245271469885196 179.88494446879437 -11.805496852927817 -9.814970300664534 -24.890569284877763 98.14061460496684
 -40.24527146988518 179.88494446879437 -1.1460038100602699 -78.35783376105924 -24.890569284877763 98.1406146049668 -11.805496852927819 -9.814970300664537
90000000.0 -14.277152277424381 -71.895834562694 -23.36821937001907 -75.0317875791028 -1.1333700796797743 -88.17554381169292 -39.0074348889443 171.66121344127063
 -23.36821937001907 -75.03178757910278 -14.277152277424381 -71.895834562694 -39.00743488894432 171.66121344127103 -1.1333700796797743 -88.17554381169292
 -1.1333700796797743 -88.17554381169292 -39.00743488894423 171.6612134412691 -12.037525599354652 -11.226651974343737 -23.930513876580818 93.41307696247634
 -39.00743488894424 171.6612134412695 -1.1333700796797743 -88.17554381169292 -23.930513876580818 93.41307696247634 -12.03752559935465 -11.226651974343735
100000000.0 -13.59607132288338 -88.48883164855381 -22.692598652350377 -93.53484835688938 -1.1192477841377948 -98.04142076203172 -37.81844200027451 162.75036552111936
 -22.692598652350384 -93.53484835688938 -13.596071322883379 -88.48883164855381 -37.81844200027453 162.75036552111968 -1.119247784137797 -98.04142076203172
 -1.119247784137797 -98.04142076203172 -37.81844200027453 162.7503655211193 -12.33715092915496 -12.461950009306149 -23.038117525886687 89.21581333936481
 -37.81844200027453 162.7503655211193 -1.119247784137797 -98.04142076203172 -23.038117525886687 89.2158133393648 -12.33715092915496 -12.461950009306149
110000000.0 -13.041839162188085 -105.08219688620139 -22.14197927030306 -111.62641636975657 -1.1090545062077348 -107.95845578764077 -36.5826437714899 152.8972334374393
 -22.14197927030306 -111.62641636975656 -13.041839162188085 -105.08219688620139 -36.58264377148987 152.8972334374394 -1.1090545062077348 -107.95845578764077
 -1.109054506207736 -107.95845578764077 -36.58264377148994 152.89723343743918 -12.67521393582533 -13.21549890019038 -22.194989136428823 84.83172377167102
 -36.58264377148992 152.8972334374392 -1.109054506207736 -107.95845578764077 -22.19498913642883 84.83172377167102 -12.67521393582533 -13.215498900190376
120000000.0 -12.565517596053413 -121.93387812998593 -21.703452900842443 -129.84534619497265 -1.1040512133024247 -117.90868661632591 -35.4353531386707 142.376812302636
 -21.70345290084245 -129.84534619497265 -12.565517596053411 -121.93387812998593 -35.435353138670706 142.37681230263604 -1.1040512133024247 -117.90868661632591
 -1.1040512133024225 -117.90868661632591 -35.43535313867075 142.37681230263647 -13.045470907714453 -13.607436196773186 -21.437089139512096 80.6904243569004
 -35.43535313867072 142.37681230263627 -1.1040512133024225 -117.90868661632591 -21.437089139512096 80.69042435690042 -13.045470907714453 -13.607436196773186
130000000.0 -12.169239755085659 -138.75373601617648 -21.38943232495004 -147.64733485197044 -1.1067202915314314 -127.89505083499235 -34.339565030726305 130.82950831761983
 -21.38943232495004 -147.64733485197044 -12.169239755085659 -138.75373601617648 -34.3395650307263 130.8295083176199 -1.1067202915314314 -127.89505083499235
 -1.1067202915314314 -127.89505083499235 -34.339565030726334 130.82950831761966 -13.427845895454041 -13.449863292950704 -20.70654719489779 76.4649447338197
 -34.33956503072635 130.82950831762005 -1.1067202915314314 -127.89505083499235 -20.70654719489779 76.4649447338197 -13.427845895454041 -13.449863292950702
140000000.0 -11.817262511067208 -155.59518166893545 -21.127600075351893 -165.29753765579292 -1.119248254989288 -137.88376068080098 -33.39085885633223 118.70184008076745
 -21.127600075351893 -165.29753765579292 -11.817262511067208 -155.59518166893545 -33.39085885633225 118.70184008076743 -1.119248254989289 -137.88376068080098
 -1.119248254989288 -137.88376068080098 -33.39085885633224 118.70184008076774 -13.809877647714108 -12.928121232380061 -20.076798480037887 72.21984465496456
 -33.3908588563323 118.70184008076771 -1.119248254989288 -137.88376068080098 -20.076798480037887 72.21984465496458 -13.809877647714108 -12.928121232380061
150000000.0 -11.528216823684128 -172.29944853342502 -20.98028475104671 177.47603662090367 -1.1393163812565745 -147.8602240411461 -32.55177998446334 105.96186029987079
 -20.980284751046703 177.47603662090367 -11.52821682368413 -172.29944853342502 -32.55177998446332 105.96186029987076 -1.1393163812565745 -147.8602240411461
 -1.1393163812565745 -147.8602240411461 -32.55177998446335 105.96186029987042 -14.184610124002344 -11.795487601545188 -19.484003594593876 68.03740690009707
 -32.55177998446334 105.96186029987058 -1.1393163812565745 -147.8602240411461 -19.484003594593876 68.03740690009707 -14.184610124002344 -11.795487601545192
160000000.0 -11.270212315799519 171.10616211877894 -20.842514204155556 160.58675768593184 -1.1667569532459579 -157.8121618440501 -31.836630079488057 92.44109812802031
 -20.842514204155552 160.58675768593184 -11.270212315799519 171.10616211877894 -31.836630079488067 92.44109812802014 -1.16675695324596 -157.8121618440501
 -1.1667569532459612 -157.8121618440501 -31.836630079488057 92.4410981280203 -14.510697953865087 -10.235112707854556 -18.96685355672052 63.802679055113714
 -31.83663007948805 92.4410981280203 -1.1667569532459612 -157.8121618440501 -18.96685355672052 63.802679055113714 -14.510697953865087 -10.23511270785456
170000000.0 -11.058275710311063 154.52367561517005 -20.793599633658655 143.96077409941088 -1.2002752080747765 -167.72403246521307 -31.269156866945277 79.31937820044774
 -20.793599633658655 143.96077409941088 -11.058275710311063 154.52367561517005 -31.26915686694529 79.3193782004479 -1.2002752080747787 -167.72403246521307
 -1.2002752080747765 -167.72403246521307 -31.26915686694529 79.31937820044773 -14.777631729176395 -8.290957338406525 -18.50356854026963 59.6259546660068
 -31.269156866945288 79.31937820044774 -1.2002752080747765 -167.72403246521307 -18.503568540269633 59.62595466600681 -14.777631729176395 -8.290957338406523
180000000.0 -10.838467669088445 138.05068501896324 -20.671226266120723 127.73536010431279 -1.2341686204778444 -177.59684830440105 -30.83884905541449 66.83674528290534
 -20.671226266120723 127.73536010431279 -10.838467669088443 138.05068501896324 -30.83884905541449 66.83674528290535 -1.2341686204778444 -177.59684830440105
 -1.2341686204778421 -177.59684830440105 -30.838849055414542 66.83674528290553 -14.987967730602584 -6.435733910178623 -18.154368148837705 55.390280824798936
 -30.838849055414546 66.83674528290568 -1.2341686204778421 -177.59684830440105 -18.154368148837705 55.390280824798936 -14.987967730602584 -6.4357339101786195
190000000.0 -10.639596897159006 121.62674428149359 -20.595604248916874 111.6427890348093 -1.2699620870546933 172.56947962405238 -30.4721104213534 54.270063912553
 -20.595604248916885 111.64278903480933 -10.639596897159 121.62674428149356 -30.4721104213534 54.27006391255302 -1.2699620870546933 172.56947962405238
 -1.2699620870546888 172.56947962405238 -30.4721104213534 54.27006391255301 -15.191438962677315 -4.27812196637007 -17.845883240752556 51.63696819362886
 -30.4721104213534 54.270063912553 -1.2699620870546888 172.56947962405238 -17.845883240752556 51.63696819362887 -15.191438962677314 -4.2781219663700645
200000000.0 -10.453351323001016 105.3515456179073 -20.490594892792732 95.90996653344125 -1.3107076548661447 162.76588617666613 -30.14712840079784 41.62842456332602
 -20.490594892792732 95.90996653344126 -10.453351323001016 105.3515456179073 -30.147128400797854 41.62842456332613 -1.3107076548661458 162.76588617666613
 -1.3107076548661458 162.76588617666616 -30.147128400797982 41.62842456332541 -15.298062955031197 -1.9638971865806856 -17.559443116663644 47.79288242985877
 -30.147128400797957 41.62842456332534 -1.3107076548661458 162.76588617666616 -17.559443116663644 47.792882429858764 -15.298062955031197 -1.9638971865806811
210000000.0 -10.282338684179797 88.96263619450438 -20.405351658642182 79.93748863288656 -1.3461767349579903 152.994440673493 -29.901475253596228 29.37348573322388
 -20.405351658642182 79.93748863288657 -10.282338684179797 88.96263619450438 -29.90147525359623 29.37348573322388 -1.3461767349579903 152.994440673493
 -1.3461767349579936 152.99444067349296 -29.90147525359617 29.373485733223983 -15.414411504995806 0.31288155137503837 -17.34630980055349 44.36488960155491
 -29.901475253596175 29.373485733223927 -1.3461767349579936 152.99444067349296 -17.34630980055349 44.36488960155491 -15.414411504995806 0.3128815513750359
220000000.0 -10.110889844429117 72.77855336851366 -20.28889837015534 64.49782911982818 -1.3858589018165288 143.28132259629987 -29.704558381424548 16.739288152869587
 -20.28889837015534 64.49782911982817 -10.110889844429117 72.77855336851366 -29.704558381424558 16.73928815286968 -1.38585890181653 143.28132259629987
 -1.38585890181653 143.28132259629987 -29.70455838142451 16.739288152869506 -15.444159098615772 3.0072208355947123 -17.11014189323288 41.109069426522325
 -29.704558381424512 16.73928815286959 -1.38585890181653 143.28132259629987 -17.110141893232882 41.10906942652232 -15.44415909861577 3.0072208355947185
230000000.0 -9.955106645579885 56.558925932240086 -20.194111730120397 48.842297360641474 -1.4158469988816569 133.58251518179063 -29.567816299512813 5.2030112766761265
 -20.194111730120397 48.842297360641474 -9.955106645579885 56.558925932240086 -29.567816299512835 5.203011276676143 -1.4158469988816569 133.58251518179063
 -1.4158469988816569 133.58251518179063 -29.56781629951287 5.203011276676432 -15.359845547506275 5.085404235490414 -16.884775067851375 37.48674312707001
 -29.56781629951289 5.203011276676379 -1.4158469988816569 133.58251518179063 -16.884775067851375 37.48674312707001 -15.359845547506275 5.085404235490417
240000000.0 -9.797303665873468 40.34202961947699 -20.050253770696344 33.11209836998049 -1.4414185640418888 123.90435221345194 -29.491900070913047 -6.084762631676743
 -20.050253770696344 33.11209836998047 -9.797303665873468 40.34202961947699 -29.491900070913047 -6.0847626316766705 -1.44141856404189 123.90435221345194
 -1.44141856404189 123.90435221345197 -29.491900070913083 -6.084762631676906 -15.390210500299673 7.0392703011739615 -16.76285205180539 34.250119153125446
 -29.491900070913065 -6.084762631676823 -1.44141856404189 123.90435221345197 -16.76285205180539 34.250119153125446 -15.39021050029967 7.0392703011739615
250000000.0 -9.65229179086115 24.079404988160658 -19.918599451866317 17.280379790021463 -1.4653491777522476 114.2204791566402 -29.369638678383442 -17.476160536666498
 -19.918599451866317 17.280379790021456 -9.65229179086115 24.079404988160658 -29.369638678383446 -17.476160536666494 -1.4653491777522476 114.2204791566402
 -1.4653491777522476 114.2204791566402 -29.369638678383453 -17.47616053666679 -15.33532707421222 9.555810819566366 -16.62682311440352 31.272021809127548
 -29.369638678383453 -17.47616053666665 -1.4653491777522476 114.2204791566402 -16.62682311440352 31.272021809127555 -15.33532707421222 9.555810819566368
260000000.0 -9.505855521180074 7.869264368547381 -19.77743149960026 1.4832837209900054 -1.4849787595344823 104.53999735475296 -29.31705089189173 -28.720098958779584
 -19.77743149960026 1.4832837209900078 -9.505855521180074 7.869264368547381 -29.31705089189173 -28.720098958779577 -1.4849787595344823 104.53999735475296
 -1.484978759534485 104.53999735475296 -29.31705089189173 -28.720098958779584 -15.222497921544186 11.885395027853555 -16.48950201506361 28.330248396234353
 -29.31705089189173 -28.720098958779584 -1.484978759534485 104.53999735475296 -16.48950201506361 28.330248396234353 -15.222497921544182 11.885395027853551
270000000.0 -9.37817598582152 -8.32275612118168 -19.631697891671102 -14.468809779535599 -1.499401677853784 94.88842946974233 -29.260647064171966 -39.49483825686676
 -19.631697891671106 -14.468809779535603 -9.37817598582152 -8.322756121181682 -29.26064706417197 -39.494838256866764 -1.499401677853784 94.88842946974233
 -1.499401677853784 94.88842946974233 -29.26064706417197 -39.49483825686679 -15.073483959401111 14.103030697273761 -16.374198943022698 25.326508166741856
 -29.260647064171977 -39.49483825686668 -1.4994016778537849 94.88842946974233 -16.374198943022698 25.326508166741856 -15.073483959401113 14.103030697273761
280000000.0 -9.262924319869999 -24.5931368820472 -19.489030334706744 -30.637425684451802 -1.5128652769531312 85.20650737823098 -29.23298779129716 -50.119094231686496
 -19.489030334706744 -30.637425684451802 -9.26292431987 -24.593136882047204 -29.23298779129717 -50.11909423168639 -1.5128652769531337 85.20650737823098
 -1.5128652769531301 85.20650737823098 -29.232987791297166 -50.11909423168655 -14.898721547829776 16.14603118333066 -16.287050429938667 22.427845554813178
 -29.232987791297155 -50.11909423168665 -1.5128652769531301 85.20650737823098 -16.287050429938667 22.427845554813175 -14.898721547829778 16.146031183330663
290000000.0 -9.161629521154461 -40.921893871471966 -19.34233647731044 -46.9017724835216 -1.5209588229738658 75.48781200679551 -29.19432929672354 -60.68796679911999
 -19.34233647731044 -46.9017724835216 -9.161629521154461 -40.921893871471966 -29.19432929672353 -60.68796679912009 -1.5209588229738658 75.48781200679551
 -1.520958822973868 75.4878120067955 -29.19432929672345 -60.68796679912048 -14.679906955269486 18.317210577221825 -16.195268793203788 19.593551272832688
 -29.194329296723467 -60.687966799120424 -1.520958822973868 75.4878120067955 -16.195268793203788 19.593551272832684 -14.679906955269486 18.31721057722183
300000000.0 -9.076972745731112 -57.304552810944394 -19.217397439634137 -63.491537127915905 -1.5286257622624708 65.7741577084987 -29.152519480255613 -71.02064665653815
 -19.217397439634134 -63.49153712791592 -9.076972745731114 -57.304552810944394 -29.152519480255613 -71.02064665653813 -1.5286257622624708 65.7741577084987
 -1.5286257622624708 65.7741577084987 -29.15251948025557 -71.02064665653818 -14.406323096774958 20.205130494632446 -16.137245124083474 16.752042075168845
 -29.152519480255567 -71.02064665653813 -1.5286257622624708 65.7741577084987 -16.137245124083474 16.75204207516884 -14.406323096774953 20.205130494632442
310000000.0 -9.014624118973924 -73.7288541271741 -19.077038643592537 -80.15033872446712 -1.5338133262377402 56.031506544942744 -29.127142999518682 -81.2546082448657
 -19.077038643592537 -80.1503387244671 -9.014624118973924 -73.72885412717412 -29.127142999518682 -81.25460824486564 -1.5338133262377402 56.031506544942744
 -1.533813326237739 56.03150654494274 -29.127142999518675 -81.25460824486545 -14.090034964584842 22.011111476322288 -16.053152714068503 14.076796079045787
 -29.127142999518675 -81.25460824486551 -1.533813326237739 56.03150654494273 -16.053152714068503 14.076796079045794 -14.090034964584843 22.01111147632228
