! Created with skrf (http://scikit-rf.org).
# Hz S MA R 50.0 
!freq magS11 angS11 magS12 angS12 magS13 angS13
! magS14 angS14
! magS21 angS21 magS22 angS22 magS23 angS23
! magS24 angS24
! magS31 angS31 magS32 angS32 magS33 angS33
! magS34 angS34
! magS41 angS41 magS42 angS42 magS43 angS43
! magS44 angS44
!
10000000.0 0.03625017953305259 28.284989037487755 0.008999525199828986 71.63009901147497 0.8817685168045574 -10.134693837261226 0.0018807064922491022 -130.08410959478422
 0.008999525199828988 71.63009901147498 0.03625017953305259 28.284989037487748 0.0018807064922491095 -130.08410959478408 0.8817685168045574 -10.134693837261226
 0.8817685168045574 -10.134693837261223 0.0018807064922490267 -130.08410959478613 0.26106422503749005 0.37965899338724607 0.023206066075121108 161.05993816160142
 0.0018807064922489686 -130.0841095947845 0.8817685168045574 -10.134693837261223 0.023206066075121132 161.05993816160142 0.2610642250374901 0.3796589933872458
20000000.0 0.05639582185572833 26.79980521152352 0.01712811473194175 53.074057022709994 0.8788511370343929 -19.975641166790748 0.0030013631857842304 -134.2539360038004
 0.017128114731941754 53.07405702270998 0.05639582185572832 26.799805211523527 0.0030013631857841753 -134.25393600379934 0.8788511370343929 -19.975641166790748
 0.8788511370343929 -19.975641166790762 0.003001363185784036 -134.2539360037998 0.265394240106717 -0.21096815045832232 0.025388030963110753 145.7844571899195
 0.003001363185784091 -134.25393600380087 0.8788511370343929 -19.975641166790762 0.025388030963110764 145.78445718991952 0.265394240106717 -0.21096815045832223
30000000.0 0.0778502965040745 17.835639731339164 0.025237186908724625 34.17561970283664 0.8763183191411924 -29.72802065385552 0.0042024902344569934 -139.62837963021877
 0.025237186908724625 34.175619702836656 0.07785029650407452 17.835639731339157 0.004202490234456934 -139.62837963021806 0.8763183191411924 -29.72802065385552
 0.8763183191411924 -29.72802065385552 0.004202490234456875 -139.62837963021735 0.2689174883788202 -1.6167195792914564 0.029170629744981674 133.47137581714273
 0.00420249023445684 -139.62837963021627 0.8763183191411924 -29.72802065385552 0.029170629744981674 133.47137581714273 0.2689174883788202 -1.6167195792914562
40000000.0 0.09898005552597913 4.8069434344610285 0.03298395354693876 15.918299381474975 0.8745865403781542 -39.43705172282149 0.005276173599340671 -147.87068071621195
 0.03298395354693875 15.91829938147498 0.09898005552597916 4.806943434461028 0.005276173599340678 -147.870680716211 0.8745865403781542 -39.43705172282149
 0.874586540378154 -39.43705172282149 0.005276173599340564 -147.8706807162122 0.2699247821899077 -3.2315121715114974 0.03375025917170886 123.34964283632631
 0.005276173599340584 -147.87068071621184 0.874586540378154 -39.43705172282149 0.033750259171708874 123.34964283632634 0.26992478218990773 -3.2315121715114965
50000000.0 0.11999640576257671 -9.054084065283032 0.04072273128787806 -2.1534540876578925 0.8738890275915002 -49.13699918157339 0.006403295333920517 -156.40006966168613
 0.040722731287878046 -2.153454087657887 0.11999640576257674 -9.054084065283032 0.006403295333920459 -156.40006966168556 0.8738890275915002 -49.13699918157339
 0.8738890275915006 -49.13699918157338 0.006403295333920293 -156.40006966168372 0.26929279238392567 -4.945833523772732 0.03877017122426275 115.43474481226453
 0.006403295333920205 -156.40006966168374 0.8738890275915006 -49.13699918157338 0.038770171224262746 115.43474481226451 0.2692927923839256 -4.945833523772733
60000000.0 0.13957873301028154 -24.001445946069644 0.04789754289399386 -20.409734050359674 0.8743759873797824 -58.84386625443898 0.007432943215289952 -164.39526380037736
 0.047897542893993866 -20.40973405035968 0.13957873301028154 -24.00144594606964 0.007432943215289928 -164.395263800378 0.8743759873797825 -58.84386625443898
 0.8743759873797825 -58.84386625443899 0.007432943215290027 -164.39526380037756 0.2664935761437065 -6.638316698848536 0.04457155216698657 108.81165297631706
 0.007432943215289969 -164.39526380037805 0.8743759873797825 -58.84386625443899 0.04457155216698656 108.81165297631703 0.2664935761437065 -6.638316698848536
70000000.0 0.15847893739168167 -39.556826138846006 0.055085908860324856 -38.42783574005205 0.8751534384831111 -68.58619281318988 0.008582579683124276 -172.42524975472907
 0.05508590886032485 -38.427835740052046 0.15847893739168167 -39.556826138846006 0.008582579683124253 -172.42524975472907 0.8751534384831111 -68.58619281318988
 0.8751534384831111 -68.58619281318988 0.00858257968312424 -172.42524975472693 0.26251013296289605 -8.274204460156316 0.05052223153498997 103.02272860185116
 0.008582579683124258 -172.42524975472696 0.8751534384831111 -68.58619281318988 0.05052223153498997 103.02272860185116 0.26251013296289605 -8.274204460156316
80000000.0 0.17658220940301425 -55.63820788244556 0.06155871200445915 -56.90469353615214 0.8763948351997239 -78.35783376105924 0.009721570422077662 179.88494446879346
 0.06155871200445915 -56.904693536152145 0.17658220940301425 -55.63820788244556 0.009721570422077648 179.88494446879392 0.8763948351997239 -78.35783376105924
 0.8763948351997239 -78.35783376105924 0.00972157042207762 179.88494446879437 0.2568769626056175 -9.814970300664534 0.05694708990168782 98.14061460496684
 0.00972157042207763 179.88494446879437 0.8763948351997239 -78.35783376105924 0.05694708990168782 98.1406146049668 0.25687696260561743 -9.814970300664537
90000000.0 0.1932601828609217 -71.895834562694 0.06785612130552447 -75.0317875791028 0.8776704894733919 -88.17554381169292 0.01121058447478544 171.66121344127063
 0.06785612130552449 -75.03178757910278 0.1932601828609217 -71.895834562694 0.011210584474785429 171.66121344127103 0.8776704894733919 -88.17554381169292
 0.8776704894733919 -88.17554381169292 0.011210584474785538 171.6612134412691 0.25010577513031634 -11.226651974343737 0.06360251750578907 93.41307696247634
 0.01121058447478553 171.6612134412695 0.8776704894733919 -88.17554381169292 0.06360251750578907 93.41307696247634 0.2501057751303164 -11.226651974343735
100000000.0 0.20902413450833268 -88.48883164855381 0.07334492475778487 -93.53484835688938 0.8790986452805941 -98.04142076203172 0.012855172242209653 162.75036552111936
 0.07334492475778484 -93.53484835688938 0.2090241345083327 -88.48883164855381 0.012855172242209625 162.75036552111968 0.8790986452805939 -98.04142076203172
 0.8790986452805939 -98.04142076203172 0.012855172242209617 162.7503655211193 0.24162532630974481 -12.461950009306149 0.07048458121261982 89.21581333936481
 0.012855172242209617 162.7503655211193 0.8790986452805939 -98.04142076203172 0.07048458121261982 89.2158133393648 0.24162532630974481 -12.461950009306149
110000000.0 0.22279633473063806 -105.08219688620139 0.07814497138555912 -111.62641636975657 0.880130912239522 -107.95845578764077 0.014820669117163928 152.8972334374393
 0.07814497138555912 -111.62641636975656 0.22279633473063806 -105.08219688620139 0.014820669117163976 152.8972334374394 0.880130912239522 -107.95845578764077
 0.8801309122395219 -107.95845578764077 0.01482066911716386 152.89723343743918 0.23240170141761862 -13.21549890019038 0.07766950604485935 84.83172377167102
 0.014820669117163895 152.8972334374392 0.8801309122395219 -107.95845578764077 0.07766950604485934 84.83172377167102 0.23240170141761862 -13.215498900190376
120000000.0 0.23535537451717564 -121.93387812998593 0.08219158488692614 -129.84534619497265 0.880638036029385 -117.90868661632591 0.016913455420555876 142.376812302636
 0.08219158488692611 -129.84534619497265 0.23535537451717567 -121.93387812998593 0.01691345542055587 142.37681230263604 0.880638036029385 -117.90868661632591
 0.8806380360293852 -117.90868661632591 0.01691345542055578 142.37681230263647 0.22270319856492027 -13.607436196773186 0.08475113889767219 80.6904243569004
 0.016913455420555827 142.37681230263627 0.8806380360293852 -117.90868661632591 0.08475113889767219 80.69042435690042 0.22270319856492027 -13.607436196773186
130000000.0 0.24634174429346795 -138.75373601617648 0.08521742042611609 -147.64733485197044 0.8803674672328201 -127.89505083499235 0.01918764825571224 130.82950831761983
 0.08521742042611609 -147.64733485197044 0.24634174429346795 -138.75373601617648 0.019187648255712262 130.8295083176199 0.8803674672328201 -127.89505083499235
 0.8803674672328201 -127.89505083499235 0.01918764825571219 130.82950831761966 0.21311190204895514 -13.449863292950704 0.09218762791305966 76.4649447338197
 0.01918764825571215 130.82950831762005 0.8803674672328201 -127.89505083499235 0.09218762791305966 76.4649447338197 0.21311190204895514 -13.449863292950702
140000000.0 0.2565292399661313 -155.59518166893545 0.08782537164263625 -165.29753765579292 0.8790985976257291 -137.88376068080098 0.02140213293111099 118.70184008076745
 0.08782537164263625 -165.29753765579292 0.2565292399661313 -155.59518166893545 0.02140213293111093 118.70184008076743 0.879098597625729 -137.88376068080098
 0.8790985976257291 -137.88376068080098 0.02140213293111096 118.70184008076774 0.20394173873074647 -12.928121232380061 0.09911972215733675 72.21984465496456
 0.021402132931110814 118.70184008076771 0.8790985976257291 -137.88376068080098 0.09911972215733675 72.21984465496458 0.20394173873074647 -12.928121232380061
150000000.0 0.2652095501086863 -172.29944853342502 0.08932761988226359 177.47603662090367 0.8770698477854596 -147.8602240411461 0.023572790733034935 105.96186029987079
 0.08932761988226362 177.47603662090367 0.26520955010868624 -172.29944853342502 0.023572790733034966 105.96186029987076 0.8770698477854596 -147.8602240411461
 0.8770698477854596 -147.8602240411461 0.023572790733034893 105.96186029987042 0.19533024455179845 -11.795487601545188 0.10612063017160187 68.03740690009707
 0.023572790733034952 105.96186029987058 0.8770698477854596 -147.8602240411461 0.10612063017160185 68.03740690009707 0.19533024455179845 -11.795487601545192
160000000.0 0.27320546613745184 171.10616211877894 0.09075577918819631 160.58675768593184 0.8743033699177932 -157.8121618440501 0.025595787505326064 92.44109812802031
 0.09075577918819637 160.58675768593184 0.27320546613745184 171.10616211877894 0.025595787505326036 92.44109812802014 0.874303369917793 -157.8121618440501
 0.8743033699177929 -157.8121618440501 0.025595787505326064 92.4410981280203 0.18813305260025667 -10.235112707854556 0.11263083975971082 63.802679055113714
 0.025595787505326085 92.4410981280203 0.8743033699177929 -157.8121618440501 0.11263083975971082 63.802679055113714 0.18813305260025667 -10.23511270785456
170000000.0 0.279953701788827 154.52367561517005 0.09126831199027681 143.96077409941088 0.8709359943469384 -167.72403246521307 0.02732386661812404 79.31937820044774
 0.09126831199027681 143.96077409941088 0.279953701788827 154.52367561517005 0.027323866618123995 79.3193782004479 0.8709359943469381 -167.72403246521307
 0.8709359943469384 -167.72403246521307 0.027323866618124002 79.31937820044773 0.18243930685169163 -8.290957338406525 0.11880140394543288 59.6259546660068
 0.027323866618124013 79.31937820044774 0.8709359943469384 -167.72403246521307 0.11880140394543286 59.62595466600681 0.18243930685169166 -8.290957338406523
180000000.0 0.2871287078659838 138.05068501896324 0.09256326959006633 127.73536010431279 0.8675441167702168 -177.59684830440105 0.028711610068773995 66.83674528290534
 0.0925632695900663 127.73536010431279 0.2871287078659839 138.05068501896324 0.028711610068774 66.83674528290535 0.8675441167702168 -177.59684830440105
 0.867544116770217 -177.59684830440105 0.028711610068773822 66.83674528290553 0.17807445074269398 -6.435733910178623 0.12367490702814328 55.390280824798936
 0.028711610068773794 66.83674528290568 0.867544116770217 -177.59684830440105 0.12367490702814327 55.390280824798936 0.17807445074269398 -6.4357339101786195
190000000.0 0.29377859883010965 121.62674428149359 0.09337267212407571 111.6427890348093 0.8639764318375011 172.56947962405238 0.02994983809094239 54.270063912553
 0.09337267212407566 111.64278903480933 0.29377859883010976 121.62674428149356 0.029949838090942395 54.27006391255302 0.8639764318375011 172.56947962405238
 0.8639764318375015 172.56947962405238 0.029949838090942395 54.27006391255301 0.17395144945392893 -4.27812196637007 0.12814623117655644 51.63696819362886
 0.02994983809094239 54.270063912553 0.8639764318375015 172.56947962405238 0.1281462311765564 51.63696819362887 0.17395144945392899 -4.2781219663700645
200000000.0 0.3001459128479686 105.3515456179073 0.09450836618562926 95.90996653344125 0.8599330037646452 162.76588617666613 0.031091636381230962 41.62842456332602
 0.09450836618562923 95.90996653344126 0.30014591284796865 105.3515456179073 0.031091636381230896 41.62842456332613 0.8599330037646451 162.76588617666613
 0.8599330037646451 162.76588617666616 0.031091636381230456 41.62842456332541 0.1718291541562807 -1.9638971865806856 0.13244264461716435 47.79288242985877
 0.03109163638123053 41.62842456332534 0.8599330037646451 162.76588617666616 0.13244264461716432 47.792882429858764 0.1718291541562807 -1.9638971865806811
210000000.0 0.3061139108057043 88.96263619450438 0.09544043653095412 79.93748863288656 0.8564286026482646 152.994440673493 0.0319835183997816 29.37348573322388
 0.09544043653095412 79.93748863288657 0.3061139108057043 88.96263619450438 0.03198351839978159 29.37348573322388 0.8564286026482646 152.994440673493
 0.8564286026482643 152.99444067349296 0.03198351839978182 29.373485733223983 0.16954282869133366 0.31288155137503837 0.13573270681053204 44.36488960155491
 0.0319835183997818 29.373485733223927 0.8564286026482643 152.99444067349296 0.13573270681053204 44.36488960155491 0.16954282869133366 0.3128815513750359
220000000.0 0.312216253326046 72.77855336851366 0.09672863996333317 64.49782911982818 0.8525248655785245 143.28132259629987 0.03271689505517881 16.739288152869587
 0.09672863996333317 64.49782911982817 0.312216253326046 72.77855336851366 0.032716895055178774 16.73928815286968 0.8525248655785244 143.28132259629987
 0.8525248655785244 143.28132259629987 0.03271689505517896 16.739288152869506 0.1689631684942118 3.0072208355947123 0.1394738872912989 41.109069426522325
 0.032716895055178934 16.73928815286959 0.8525248655785244 143.28132259629987 0.13947388729129886 41.10906942652232 0.16896316849421184 3.0072208355947185
230000000.0 0.3178664324865128 56.558925932240086 0.09778999265170589 48.842297360641474 0.8495865924111877 133.58251518179063 0.033236033269158714 5.2030112766761265
 0.09778999265170589 48.842297360641474 0.3178664324865128 56.558925932240086 0.03323603326915863 5.203011276676143 0.8495865924111877 133.58251518179063
 0.8495865924111877 133.58251518179063 0.0332360332691585 5.203011276676432 0.1706112726830719 5.085404235490414 0.14314007703540374 37.48674312707001
 0.03323603326915841 5.203011276676379 0.8495865924111877 133.58251518179063 0.14314007703540374 37.48674312707001 0.1706112726830719 5.085404235490417
240000000.0 0.32369412471094 40.34202961947699 0.09942310256463345 33.11209836998049 0.8470890577650589 123.90435221345194 0.03352779531190471 -6.084762631676743
 0.09942310256463345 33.11209836998047 0.32369412471094 40.34202961947699 0.0335277953119047 -6.0847626316766705 0.8470890577650588 123.90435221345194
 0.8470890577650588 123.90435221345197 0.03352779531190457 -6.084762631676906 0.17001587502333837 7.0392703011739615 0.1451634888332865 34.250119153125446
 0.03352779531190464 -6.084762631676823 0.8470890577650588 123.90435221345197 0.1451634888332865 34.250119153125446 0.1700158750233384 7.0392703011739615
250000000.0 0.3291435966218303 24.079404988160658 0.10094156352331744 17.280379790021463 0.8447584431085798 114.2204791566402 0.03400306503389428 -17.476160536666498
 0.10094156352331744 17.280379790021456 0.3291435966218303 24.079404988160658 0.034003065033894275 -17.476160536666494 0.8447584431085798 114.2204791566402
 0.8447584431085798 114.2204791566402 0.03400306503389426 -17.47616053666679 0.17109355345338037 9.555810819566366 0.1474547761844369 31.272021809127548
 0.03400306503389426 -17.47616053666665 0.8447584431085798 114.2204791566402 0.14745477618443686 31.272021809127555 0.1710935534533804 9.555810819566368
260000000.0 0.334739701055698 7.869264368547381 0.1025955266155262 1.4832837209900054 0.8428514960600573 104.53999735475296 0.03420955740352141 -28.720098958779584
 0.1025955266155262 1.4832837209900078 0.334739701055698 7.869264368547381 0.0342095574035214 -28.720098958779577 0.8428514960600573 104.53999735475296
 0.842851496060057 104.53999735475296 0.03420955740352141 -28.720098958779584 0.17333054554228208 11.885395027853555 0.1498045137457274 28.330248396234353
 0.03420955740352141 -28.720098958779584 0.842851496060057 104.53999735475296 0.1498045137457274 28.330248396234353 0.1733305455422821 11.885395027853551
270000000.0 0.33969660050127015 -8.32275612118168 0.10433141688676821 -14.468809779535599 0.8414531026264432 94.88842946974233 0.03443242790209339 -39.49483825686676
 0.10433141688676818 -14.468809779535603 0.3396966005012702 -8.322756121181682 0.034432427902093374 -39.494838256866764 0.8414531026264432 94.88842946974233
 0.8414531026264432 94.88842946974233 0.03443242790209337 -39.49483825686679 0.17632983536819904 14.103030697273761 0.15180639003776408 25.326508166741856
 0.034432427902093325 -39.49483825686668 0.8414531026264431 94.88842946974233 0.1518063900377641 25.326508166741856 0.17632983536819902 14.103030697273761
280000000.0 0.3442340163444605 -24.5931368820472 0.1060592332942812 -30.637425684451802 0.8401498151142225 85.20650737823098 0.03454224899567892 -50.119094231686496
 0.10605923329428121 -30.637425684451802 0.34423401634446044 -24.593136882047204 0.03454224899567886 -50.11909423168639 0.8401498151142223 85.20650737823098
 0.8401498151142226 85.20650737823098 0.03454224899567889 -50.11909423168655 0.17991357054701318 16.14603118333066 0.15333718231298477 22.427845554813178
 0.03454224899567894 -50.11909423168665 0.8401498151142226 85.20650737823098 0.1533371823129848 22.427845554813175 0.17991357054701315 16.146031183330663
290000000.0 0.3482719711499963 -40.921893871471966 0.10786565279481469 -46.9017724835216 0.8393673248427743 75.48781200679551 0.03469632963158428 -60.68796679911999
 0.10786565279481469 -46.9017724835216 0.3482719711499963 -40.921893871471966 0.034696329631584324 -60.68796679912009 0.8393673248427743 75.48781200679551
 0.8393673248427741 75.4878120067955 0.03469632963158466 -60.68796679912048 0.1845035183405028 18.317210577221825 0.1549660489615551 19.593551272832688
 0.03469632963158459 -60.687966799120424 0.8393673248427741 75.4878120067955 0.1549660489615551 19.593551272832684 0.1845035183405028 18.31721057722183
300000000.0 0.3516829896708326 -57.304552810944394 0.10942841984435467 -63.491537127915905 0.838626751429446 65.7741577084987 0.03486374416392525 -71.02064665653815
 0.10942841984435471 -63.49153712791592 0.35168298967083256 -57.304552810944394 0.03486374416392525 -71.02064665653813 0.838626751429446 65.7741577084987
 0.838626751429446 65.7741577084987 0.03486374416392542 -71.02064665653818 0.19040740979825227 20.205130494632446 0.15600472195704596 16.752042075168845
 0.034863744163925424 -71.02064665653813 0.838626751429446 65.7741577084987 0.15600472195704596 16.75204207516884 0.19040740979825235 20.205130494632442
310000000.0 0.3542165053496501 -73.7288541271741 0.11121108243343998 -80.15033872446712 0.838126039212502 56.031506544942744 0.03496575015472435 -81.2546082448657
 0.11121108243343998 -80.1503387244671 0.3542165053496501 -73.72885412717412 0.03496575015472435 -81.25460824486564 0.838126039212502 56.031506544942744
 0.8381260392125021 56.03150654494274 0.03496575015472437 -81.25460824486545 0.1974686930396558 22.011111476322288 0.15752241604496417 14.076796079045787
 0.03496575015472437 -81.25460824486551 0.8381260392125021 56.03150654494273 0.15752241604496417 14.076796079045794 0.19746869303965578 22.01111147632228
